"Freq [GHz]","Antenna to Waveport 2 [rad]","Antenna to Waveport 1 [rad]"
0.1,-1.6706533159575,-1.71103539933599
0.10225,-1.67319391796947,-1.71447776207433
0.1045,-1.67573224518128,-1.71791778093303
0.10675,-1.67826847719508,-1.72135563173545
0.109,-1.68080277251358,-1.72479147000598
0.11125,-1.68333527110615,-1.7282254334539
0.1135,-1.68586609665602,-1.73165764414523
0.11575,-1.68839535853028,-1.73508821040365
0.118,-1.69092315350888,-1.73851722847622
0.12025,-1.69344956730329,-1.74194478399402
0.1225,-1.69597467589142,-1.74537095325406
0.12475,-1.69849854669185,-1.74879580434498
0.127,-1.70102123959703,-1.75221939813603
0.12925,-1.70354280788299,-1.75564178914637
0.1315,-1.70606329901036,-1.75906302630944
0.13375,-1.70858275532988,-1.76248315364509
0.136,-1.71110121470392,-1.76590221085091
0.13825,-1.7136187110539,-1.76932023382228
0.1405,-1.71613527484254,-1.77273725511001
0.14275,-1.71865093349852,-1.77615330432274
0.145,-1.72116571179045,-1.77956840848106
0.14725,-1.72367963215601,-1.78298259232877
0.1495,-1.7261927149916,-1.78639587860663
0.15175,-1.72870497890708,-1.78980828829298
0.154,-1.73121644094972,-1.79321984081512
0.15625,-1.73372711680092,-1.79663055423501
0.1585,-1.73623702094894,-1.80004044541227
0.16075,-1.73874616684043,-1.80344953014722
0.163,-1.7412545670132,-1.80685782330632
0.16525,-1.74376223321255,-1.81026533893207
0.1675,-1.74626917649296,-1.81367209033934
0.16975,-1.74877540730701,-1.81707809019958
0.172,-1.75128093558286,-1.82048335061454
0.17425,-1.75378577079187,-1.82388788318055
0.1765,-1.75628992200739,-1.8272916990448
0.17875,-1.75879339795575,-1.83069480895423
0.181,-1.7612962070606,-1.83409722329826
0.18325,-1.7637983574811,-1.83749895214584
0.1855,-1.76629985714499,-1.84090000527773
0.18775,-1.76880071377704,-1.84430039221445
0.19,-1.7713009349234,-1.84770012224051
0.19225,-1.77380052797252,-1.85109920442543
0.1945,-1.7762995001729,-1.85449764764177
0.19675,-1.77879785864823,-1.8578954605808
0.199,-1.78129561041015,-1.8612926517659
0.20125,-1.78379276236892,-1.86468922956414
0.2035,-1.78628932134246,-1.86808520219615
0.20575,-1.7887852940637,-1.87148057774461
0.208,-1.79128068718674,-1.87487536416146
0.21025,-1.79377550729179,-1.87826956927408
0.2125,-1.79626976088916,-1.88166320079053
0.21475,-1.79876345442244,-1.88505626630401
0.217,-1.80125659427092,-1.88844877329658
0.21925,-1.80374918675142,-1.8918407291424
0.2215,-1.80624123811968,-1.89523214111042
0.22375,-1.80873275457121,-1.89862301636662
0.226,-1.81122374224187,-1.90201336197596
0.22825,-1.81371420720813,-1.90540318490397
0.2305,-1.81620415548711,-1.90879249201818
0.23275,-1.8186935930364,-1.91218129008924
0.235,-1.82118252575378,-1.91556958579194
0.23725,-1.82367095947677,-1.9189573857061
0.2395,-1.82615889998213,-1.92234469631729
0.24175,-1.82864635298533,-1.92573152401755
0.244,-1.8311333241399,-1.92911787510595
0.24625,-1.83361981903685,-1.9325037557892
0.2485,-1.83610584320404,-1.93588917218217
0.25075,-1.83859140210557,-1.93927413030835
0.253,-1.84107650114121,-1.94265863610043
0.25525,-1.84356114564579,-1.94604269540072
0.2575,-1.84604534088876,-1.94942631396168
0.25975,-1.84852909207364,-1.95280949744645
0.262,-1.85101240433764,-1.95619225142931
0.26425,-1.85349528275123,-1.95957458139628
0.2665,-1.85597773231786,-1.96295649274564
0.26875,-1.85845975797367,-1.96633799078853
0.271,-1.86094136458721,-1.96971908074954
0.27325,-1.86342255695939,-1.97309976776734
0.2755,-1.86590333982323,-1.97648005689534
0.27775,-1.86838371784392,-1.97985995310233
0.28,-1.87086369561873,-1.98323946127324
0.28225,-1.8733432776771,-1.98661858620979
0.2845,-1.87582246848068,-1.98999733263127
0.28675,-1.87830127242354,-1.99337570517532
0.289,-1.8807796938323,-1.99675370839866
0.29125,-1.88325773696637,-2.00013134677795
0.2935,-1.88573540601824,-2.00350862471057
0.29575,-1.88821270511377,-2.00688554651546
0.298,-1.89068963831253,-2.01026211643402
0.30025,-1.89316620960821,-2.01363833863088
0.3025,-1.89564242292903,-2.01701421719488
0.30475,-1.89811828213816,-2.02038975613989
0.307,-1.90059379103422,-2.02376495940572
0.30925,-1.90306895335177,-2.02713983085905
0.3115,-1.90554377276186,-2.03051437429431
0.31375,-1.90801825287257,-2.03388859343463
0.316,-1.91049239722956,-2.03726249193274
0.31825,-1.9129662093167,-2.0406360733719
0.3205,-1.91543969255665,-2.04400934126684
0.32275,-1.91791285031153,-2.04738229906468
0.325,-1.9203856858835,-2.05075495014587
0.32725,-1.92285820251546,-2.05412729782511
0.3295,-1.9253304033917,-2.05749934535228
0.33175,-1.9278022916386,-2.06087109591338
0.334,-1.93027387032527,-2.06424255263143
0.33625,-1.9327451424643,-2.06761371856744
0.3385,-1.93521611101243,-2.07098459672125
0.34075,-1.93768677887123,-2.07435519003251
0.343,-1.94015714888788,-2.07772550138153
0.34525,-1.94262722385584,-2.08109553359024
0.3475,-1.94509700651557,-2.08446528942302
0.34975,-1.94756649955525,-2.08783477158762
0.352,-1.95003570561152,-2.09120398273604
0.35425,-1.9525046272702,-2.09457292546538
0.3565,-1.95497326706697,-2.09794160231872
0.35875,-1.95744162748815,-2.10131001578595
0.361,-1.95990971097138,-2.10467816830466
0.36325,-1.96237751990634,-2.1080460622609
0.3655,-1.96484505663548,-2.11141369999009
0.36775,-1.96731232345472,-2.11478108377775
0.37,-1.96977932261416,-2.1181482158604
0.37225,-1.97224605631877,-2.12151509842626
0.3745,-1.97471252672911,-2.12488173361612
0.37675,-1.97717873596203,-2.12824812352404
0.379,-1.9796446860913,-2.13161427019818
0.38125,-1.98211037914837,-2.13498017564151
0.3835,-1.98457581712301,-2.1383458418126
0.38575,-1.98704100196397,-2.14171127062629
0.388,-1.98950593557968,-2.14507646395448
0.39025,-1.99197061983887,-2.14844142362679
0.3925,-1.99443505657126,-2.15180615143131
0.39475,-1.99689924756818,-2.15517064911526
0.397,-1.99936319458322,-2.15853491838566
0.39925,-2.00182689933287,-2.16189896091007
0.4015,-2.00429036349711,-2.16526277831715
0.40375,-2.00675358872009,-2.16862637219742
0.406,-2.00921657661069,-2.1719897441038
0.40825,-2.01167932874313,-2.1753528955523
0.4105,-2.01414184665759,-2.17871582802266
0.41275,-2.01660413186079,-2.18207854295888
0.415,-2.01906618582656,-2.18544104176991
0.41725,-2.02152800999644,-2.18880332583019
0.4195,-2.02398960578021,-2.19216539648022
0.42175,-2.02645097455649,-2.19552725502719
0.424,-2.02891211767328,-2.19888890274549
0.42625,-2.03137303644847,-2.2022503408773
0.4285,-2.03383373217046,-2.20561157063308
0.43075,-2.0362942060986,-2.20897259319217
0.433,-2.03875445946377,-2.2123334097033
0.43525,-2.04121449346889,-2.21569402128506
0.4375,-2.04367430928943,-2.21905442902646
0.43975,-2.04613390807388,-2.22241463398744
0.442,-2.0485932909443,-2.22577463719928
0.44425,-2.05105245899678,-2.22913443966521
0.4465,-2.05351141330192,-2.23249404236075
0.44875,-2.05597015490529,-2.23585344623428
0.451,-2.05842868482797,-2.23921265220746
0.45325,-2.06088700406692,-2.24257166117568
0.4555,-2.0633451135955,-2.24593047400851
0.45775,-2.06580301436389,-2.24928909155012
0.46,-2.06826070729955,-2.25264751461975
0.46225,-2.07071819330764,-2.25600574401209
0.4645,-2.07317547327149,-2.25936378049771
0.46675,-2.07563254805295,-2.26272162482348
0.469,-2.0780894184929,-2.26607927771295
0.47125,-2.08054608541158,-2.26943673986676
0.4735,-2.08300254960905,-2.27279401196302
0.47575,-2.0854588118656,-2.27615109465771
0.478,-2.08791487294208,-2.279507988585
0.48025,-2.09037073358036,-2.28286469435769
0.4825,-2.09282639450367,-2.28622121256754
0.48475,-2.09528185641702,-2.28957754378561
0.487,-2.09773712000754,-2.29293368856263
0.48925,-2.10019218594484,-2.29628964742935
0.4915,-2.10264705488141,-2.29964542089687
0.49375,-2.10510172745297,-2.30300100945698
0.496,-2.10755620427881,-2.30635641358245
0.49825,-2.11001048596213,-2.30971163372744
0.5005,-2.11246457309042,-2.31306667032773
0.50275,-2.11491846623575,-2.31642152380106
0.505,-2.11737216595517,-2.31977619454748
0.50725,-2.11982567279097,-2.32313068294958
0.5095,-2.12227898727106,-2.32648498937286
0.51175,-2.12473210990925,-2.32983911416595
0.514,-2.12718504120561,-2.33319305766098
0.51625,-2.12963778164675,-2.3365468201738
0.5185,-2.13209033170613,-2.33990040200427
0.52075,-2.13454269184438,-2.34325380343658
0.523,-2.13699486250961,-2.34660702473946
0.52525,-2.13944684413766,-2.34996006616649
0.5275,-2.14189863715245,-2.35331292795636
0.52975,-2.14435024196624,-2.3566656103331
0.532,-2.14680165897991,-2.36001811350636
0.53425,-2.14925288858325,-2.36337043767167
0.5365,-2.15170393115525,-2.36672258301066
0.53875,-2.15415478706435,-2.37007454969131
0.541,-2.15660545666875,-2.37342633786824
0.54325,-2.15905594031662,-2.37677794768286
0.5455,-2.16150623834642,-2.38012937926369
0.54775,-2.16395635108714,-2.38348063272651
0.55,-2.16640627885854,-2.38683170817467
0.55225,-2.16885602197146,-2.39018260569926
0.5545,-2.171305580728,-2.39353332537934
0.55675,-2.17375495542182,-2.39688386728217
0.559,-2.17620414633837,-2.4002342314634
0.56125,-2.17865315375513,-2.40358441796734
0.5635,-2.18110197794187,-2.4069344268271
0.56575,-2.18355061916085,-2.41028425806484
0.568,-2.18599907766711,-2.41363391169195
0.57025,-2.18844735370865,-2.41698338770928
0.5725,-2.19089544752667,-2.42033268610731
0.57475,-2.19334335935584,-2.42368180686638
0.577,-2.19579108942447,-2.42703074995683
0.57925,-2.19823863795476,-2.43037951533925
0.5815,-2.20068600516303,-2.43372810296463
0.58375,-2.20313319125989,-2.43707651277458
0.586,-2.20558019645054,-2.44042474470149
0.58825,-2.20802702093488,-2.44377279866869
0.5905,-2.2104736649078,-2.4471206745907
0.59275,-2.21292012855935,-2.45046837237334
0.595,-2.21536641207498,-2.45381589191395
0.59725,-2.2178125156357,-2.45716323310154
0.5995,-2.22025843941831,-2.46051039581697
0.60175,-2.22270418359559,-2.46385737993312
0.604,-2.22514974833651,-2.46720418531507
0.60625,-2.22759513380642,-2.47055081182025
0.6085,-2.23004034016725,-2.47389725929861
0.61075,-2.23248536757768,-2.47724352759278
0.613,-2.23493021619335,-2.48058961653825
0.61525,-2.23737488616706,-2.48393552596351
0.6175,-2.23981937764894,-2.48728125569022
0.61975,-2.24226369078663,-2.49062680553336
0.622,-2.24470782572548,-2.49397217530137
0.62425,-2.24715178260871,-2.49731736479636
0.6265,-2.24959556157763,-2.50066237381419
0.62875,-2.25203916277178,-2.50400720214467
0.631,-2.25448258632912,-2.5073518495717
0.63325,-2.25692583238621,-2.5106963158734
0.6355,-2.25936890107837,-2.51404060082227
0.63775,-2.26181179253989,-2.51738470418536
0.64,-2.26425450690414,-2.52072862572436
0.64225,-2.26669704430381,-2.52407236519578
0.6445,-2.26913940487102,-2.52741592235111
0.64675,-2.2715815887375,-2.53075929693691
0.649,-2.2740235960348,-2.53410248869498
0.65125,-2.27646542689439,-2.53744549736251
0.6535,-2.27890708144786,-2.54078832267219
0.65575,-2.28134855982708,-2.54413096435236
0.658,-2.28378986216434,-2.54747342212715
0.66025,-2.28623098859254,-2.5508156957166
0.6625,-2.28867193924532,-2.5541577848368
0.66475,-2.29111271425722,-2.55749968920006
0.667,-2.29355331376386,-2.56084140851495
0.66925,-2.29599373790207,-2.56418294248654
0.6715,-2.29843398681003,-2.56752429081644
0.67375,-2.30087406062748,-2.570865453203
0.676,-2.3033139594958,-2.57420642934136
0.67825,-2.3057536835582,-2.57754721892367
0.6805,-2.30819323295986,-2.58088782163914
0.68275,-2.31063260784809,-2.5842282371742
0.685,-2.31307180837244,-2.58756846521262
0.68725,-2.31551083468489,-2.59090850543563
0.6895,-2.31794968693997,-2.59424835752206
0.69175,-2.32038836529489,-2.59758802114843
0.694,-2.32282686990971,-2.60092749598912
0.69625,-2.32526520094749,-2.60426678171643
0.6985,-2.32770335857438,-2.60760587800077
0.70075,-2.33014134295979,-2.61094478451071
0.703,-2.33257915427657,-2.61428350091317
0.70525,-2.33501679270105,-2.61762202687348
0.7075,-2.33745425841326,-2.62096036205552
0.70975,-2.33989155159705,-2.62429850612186
0.712,-2.3423286724402,-2.62763645873385
0.71425,-2.34476562113455,-2.63097421955173
0.7165,-2.34720239787618,-2.63431178823478
0.71875,-2.3496390028655,-2.63764916444142
0.721,-2.35207543630738,-2.6409863478293
0.72325,-2.35451169841131,-2.64432333805545
0.7255,-2.35694778939151,-2.64766013477638
0.72775,-2.35938370946706,-2.65099673764821
0.73,-2.36181945886202,-2.65433314632674
0.73225,-2.3642550378056,-2.65766936046762
0.7345,-2.36669044653221,-2.66100537972642
0.73675,-2.36912568528167,-2.66434120375876
0.739,-2.37156075429926,-2.66767683222042
0.74125,-2.37399565383589,-2.67101226476745
0.7435,-2.37643038414824,-2.67434750105629
0.74575,-2.3788649454988,-2.67768254074385
0.748,-2.38129933815609,-2.68101738348767
0.75025,-2.38373356239473,-2.68435202894599
0.7525,-2.38616761849554,-2.68768647677787
0.75475,-2.38860150674572,-2.69102072664332
0.757,-2.39103522743893,-2.69435477820336
0.75925,-2.39346878087538,-2.69768863112019
0.7615,-2.39590216736204,-2.70102228505725
0.76375,-2.39833538721265,-2.70435573967937
0.766,-2.4007684407479,-2.70768899465283
0.76825,-2.40320132829553,-2.7110220496455
0.7705,-2.40563405019046,-2.71435490432695
0.77275,-2.40806660677487,-2.71768755836855
0.775,-2.41049899839833,-2.72102001144355
0.77725,-2.41293122541792,-2.72435226322724
0.7795,-2.41536328819835,-2.727684313397
0.78175,-2.41779518711204,-2.73101616163247
0.784,-2.42022692253925,-2.73434780761559
0.78625,-2.42265849486821,-2.73767925103074
0.7885,-2.42508990449518,-2.74101049156485
0.79075,-2.42752115182461,-2.7443415289075
0.793,-2.42995223726921,-2.74767236275101
0.79525,-2.43238316125008,-2.75100299279057
0.7975,-2.43481392419681,-2.75433341872432
0.79975,-2.43724452654759,-2.75766364025347
0.802,-2.43967496874931,-2.76099365708241
0.80425,-2.44210525125765,-2.76432346891879
0.8065,-2.44453537453723,-2.76765307547366
0.80875,-2.44696533906167,-2.77098247646154
0.811,-2.4493951453137,-2.77431167160054
0.81325,-2.45182479378529,-2.77764066061246
0.8155,-2.45425428497772,-2.78096944322291
0.81775,-2.45668361940169,-2.78429801916136
0.82,-2.45911279757745,-2.78762638816133
0.82225,-2.46154182003485,-2.79095454996042
0.8245,-2.46397068731347,-2.79428250430043
0.82675,-2.46639939996272,-2.79761025092749
0.829,-2.46882795854193,-2.80093778959213
0.83125,-2.47125636362045,-2.80426512004941
0.8335,-2.47368461577775,-2.80759224205899
0.83575,-2.4761127156035,-2.81091915538528
0.838,-2.4785406636977,-2.81424585979747
0.84025,-2.48096846067076,-2.81757235506973
0.8425,-2.48339610714355,-2.82089864098121
0.84475,-2.48582360374758,-2.82422471731622
0.847,-2.48825095112503,-2.82755058386429
0.84925,-2.49067814992887,-2.83087624042029
0.8515,-2.49310520082292,-2.83420168678452
0.85375,-2.49553210448199,-2.83752692276282
0.856,-2.49795886159194,-2.84085194816668
0.85825,-2.50038547284979,-2.84417676281331
0.8605,-2.50281193896379,-2.84750136652577
0.86275,-2.5052382606535,-2.85082575913308
0.865,-2.50766443864993,-2.85414994047028
0.86725,-2.51009047369559,-2.85747391037857
0.8695,-2.51251636654456,-2.86079766870539
0.87175,-2.51494211796263,-2.86412121530454
0.874,-2.51736772872734,-2.86744455003626
0.87625,-2.5197931996281,-2.87076767276734
0.8785,-2.52221853146626,-2.87409058337122
0.88075,-2.52464372505519,-2.8774132817281
0.883,-2.52706878122037,-2.88073576772502
0.88525,-2.52949370079947,-2.88405804125598
0.8875,-2.53191848464246,-2.88738010222204
0.88975,-2.53434313361164,-2.8907019505314
0.892,-2.5367676485818,-2.89402358609953
0.89425,-2.5391920304402,-2.89734500884923
0.8965,-2.54161628008675,-2.9006662187108
0.89875,-2.54404039843403,-2.90398721562204
0.901,-2.54646438640739,-2.90730799952845
0.90325,-2.54888824494503,-2.91062857038326
0.9055,-2.55131197499808,-2.91394892814758
0.90775,-2.55373557753066,-2.91726907279044
0.91,-2.55615905351999,-2.92058900428897
0.91225,-2.55858240395645,-2.92390872262843
0.9145,-2.56100562984365,-2.92722822780233
0.91675,-2.5634287321985,-2.93054751981255
0.919,-2.56585171205134,-2.93386659866942
0.92125,-2.56827457044593,-2.93718546439183
0.9235,-2.5706973084396,-2.94050411700733
0.92575,-2.57311992710327,-2.9438225565522
0.928,-2.57554242752157,-2.9471407830716
0.93025,-2.57796481079287,-2.95045879661963
0.9325,-2.58038707802938,-2.95377659725945
0.93475,-2.58280923035722,-2.95709418506336
0.937,-2.58523126891646,-2.96041156011294
0.93925,-2.58765319486124,-2.96372872249908
0.9415,-2.59007500935982,-2.96704567232216
0.94375,-2.59249671359461,-2.97036240969208
0.946,-2.59491830876231,-2.97367893472841
0.94825,-2.59733979607393,-2.97699524756044
0.9505,-2.59976117675487,-2.98031134832734
0.95275,-2.60218245204498,-2.98362723717821
0.955,-2.60460362319864,-2.98694291427218
0.95725,-2.60702469148482,-2.99025837977855
0.9595,-2.60944565818715,-2.99357363387684
0.96175,-2.61186652460398,-2.99688867675692
0.964,-2.61428729204843,-3.0002035086191
0.96625,-2.61670796184849,-3.00351812967423
0.9685,-2.61912853534706,-3.00683254014378
0.97075,-2.621549013902,-3.01014674025998
0.973,-2.62396939888622,-3.01346073026588
0.97525,-2.62638969168773,-3.01677451041545
0.9775,-2.62880989370969,-3.02008808097371
0.97975,-2.63123000637048,-3.02340144221679
0.982,-2.63365003110378,-3.02671459443206
0.98425,-2.63606996935859,-3.0300275379182
0.9865,-2.63848982259931,-3.03334027298534
0.98875,-2.64090959230581,-3.03665279995509
0.991,-2.64332927997346,-3.0399651191607
0.99325,-2.64574888711322,-3.04327723094714
0.9955,-2.64816841525165,-3.04658913567118
0.99775,-2.65058786593102,-3.04990083370151
1,-2.65300724070932,-3.05321232541883
