"Freq [GHz]","ang_rad(S(waveport1:1,1)) [rad]","ang_rad(S(waveport2:1,1)) [rad]"
0.001,-1.57145069468213,-1.57130756111403
0.0509975,-1.60416562947662,-1.59686835164707
0.100995,-1.63687621396309,-1.62242511027719
0.1509925,-1.66957814973116,-1.64797393188993
0.20099,-1.70226717733513,-1.67351090964945
0.2509875,-1.73493906152179,-1.6990321593632
0.300985,-1.76758960044646,-1.72453382933481
0.3509825,-1.80021463342896,-1.75001210786747
0.40098,-1.83281004839048,-1.77546323045894
0.4509775,-1.86537179133382,-1.80088348904195
0.500975,-1.89789586912617,-1.82626923452969
0.5509725,-1.93037836147051,-1.85161688855305
0.60097,-1.96281542468697,-1.87692294701137
0.6509675,-1.99520329867837,-1.90218398681027
0.700965,-2.02753831280796,-1.92739667151483
0.7509625,-2.05981689139916,-1.95255775662789
0.80096,-2.09203555882452,-1.97766409446077
0.8509575,-2.12419094416909,-2.002712638582
0.900955,-2.1562797854578,-2.02770044783352
0.9509525,-2.18829893343959,-2.0526246899078
1.00095,-2.22024535492469,-2.07748264448215
1.0509475,-2.2521161356739,-2.10227170590953
1.100945,-2.28390848284216,-2.12698938546842
1.1509425,-2.31561972698123,-2.15163331317664
1.20094,-2.34724732360874,-2.17620123917682
1.2509375,-2.37878885435359,-2.20069103470369
1.300935,-2.41024202768967,-2.22510069264522
1.3509325,-2.44160467927185,-2.24942832771198
1.40093,-2.47287477189005,-2.27367217623056
1.4509275,-2.50405039505861,-2.29783059557843
1.500925,-2.53512976425949,-2.32190206327913
1.5509225,-2.56611121985911,-2.34588517577732
1.60092,-2.59699322571907,-2.36977864691455
1.6509175,-2.62777436752207,-2.39358130612664
1.700915,-2.65845335083439,-2.41729209638459
1.7509125,-2.68902899892694,-2.44091007190063
1.80091,-2.71950025037642,-2.46443439562133
1.8509075,-2.74986615646855,-2.48786433652954
1.900905,-2.78012587842455,-2.51119926677651
1.9509025,-2.81027868447218,-2.53443865866523
2.0009,-2.84032394678154,-2.55758208150545
2.0508975,-2.87026113828559,-2.58062919836014
2.100895,-2.90008982940459,-2.60357976270249
2.1508925,-2.92980968469254,-2.62643361500159
2.20089,-2.9594204594232,-2.64919067925422
2.2508875,-2.98892199613203,-2.67185095947907
2.300885,-3.01831422112975,-2.6944145361888
2.3508825,-3.0475971410018,-2.71688156285447
2.40088,-3.07677083910744,-2.73925226237565
2.4508775,-3.10583547209082,-2.76152692356856
2.500875,-3.13479126641562,-2.78370589768382
2.5508725,3.11954679224583,-2.80578959496397
2.60087,3.09080773368204,-2.82777848125033
2.6508675,3.06217644955546,-2.84967307464756
2.700865,3.03365246796003,-2.87147394225352
2.7508625,3.00523526381,-2.89318169696103
2.80086,2.97692426197683,-2.91479699433744
2.8508575,2.94871884034834,-2.93632052958684
2.900855,2.92061833280603,-2.95775303459933
2.9508525,2.89262203211679,-2.97909527509073
3.00085,2.86472919273602,-3.00034804783573
3.0508475,2.83693903351994,-3.02151217799658
3.100845,2.80925074034523,-3.042588516549
3.1508425,2.78166346863487,-3.06357793780653
3.20084,2.75417634578938,-3.08448133704375
3.2508375,2.72678847352327,-3.10529962821876
3.300835,2.6994989301068,-3.12603374179452
3.3508325,2.67230677251351,3.13650068452107
3.40083,2.64521103847458,3.11593207903969
3.4508275,2.61821074844077,3.0954447810569
3.500825,2.59130490745382,3.07503781392578
3.5508225,2.5644925069285,3.05471019393557
3.60082,2.53777252634745,3.03446093191961
3.6508175,2.51114393487066,3.01428903477425
3.700815,2.48460569286177,2.99419350689094
3.7508125,2.45815675333349,2.97417335150384
3.80081,2.43179606331442,2.95422757195546
3.8508075,2.40552256513985,2.93435517288262
3.900805,2.37933519766888,2.91455516132553
3.9508025,2.35323289743049,2.89482654776245
4.0008,2.32721459970123,2.87516834707258
4.0507975,2.30127923951683,2.85557957942991
4.100795,2.27542575262064,2.8360592711305
4.1507925,2.24965307635119,2.81660645535599
4.20079,2.22396015047169,2.7972201728758
4.2507875,2.1983459179437,2.77789947269074
4.300785,2.17280932564771,2.75864341262047
4.3507825,2.14734932505292,2.7394510598373
4.40078,2.12196487283864,2.72032149134885
4.4507775,2.09665493146975,2.70125379443192
4.500775,2.07141846972831,2.68224706701991
4.5507725,2.04625446320374,2.6633004180461
4.60077,2.02116189474357,2.64441296774492
4.6507675,1.99613975486701,2.62558384791347
4.700765,1.9711870421432,2.60681220213534
4.7507625,1.94630276353627,2.58809718596866
4.80076,1.92148593471892,2.56943796710051
4.8507575,1.89673558035659,2.55083372546936
4.900755,1.87205073436369,2.53228365335759
4.9507525,1.84743044013383,2.51378695545561
5.00075,1.82287375074558,2.49534284889945
5.0507475,1.79837972914524,2.47695056328334
5.100745,1.77394744830829,2.45860934064888
5.1507425,1.74957599138082,2.44031843545226
5.20074,1.72526445180229,2.42207711451101
5.2507375,1.70101193341113,2.40388465693161
5.300735,1.67681755053413,2.38574035401931
5.3507325,1.65268042806101,2.3676435091714
5.40073,1.62859970150534,2.34959343775517
5.4507275,1.60457451705263,2.33158946697162
5.500725,1.58060403159687,2.31363093570621
5.5507225,1.55668741276629,2.29571719436742
5.60072,1.53282383893936,2.27784760471445
5.6507175,1.50901249925178,2.26002153967474
5.700715,1.48525259359522,2.2422383831524
5.7507125,1.46154333260866,2.22449752982839
5.80071,1.43788393766276,2.20679838495314
5.8507075,1.41427364083811,2.18914036413268
5.900705,1.39071168489767,2.17152289310875
5.9507025,1.36719732325393,2.15394540753378
6.0007,1.34372981993118,2.13640735274139
6.0506975,1.32030844952324,2.11890818351305
6.100695,1.29693249714677,2.10144736384144
6.1506925,1.27360125839037,2.0840243666913
6.20069,1.25031403925956,2.06663867375812
6.2506875,1.22707015611761,2.04928977522529
6.300685,1.20386893562201,2.03197716952027
6.3506825,1.18070971465657,2.01470036307012
6.40068,1.15759184025866,1.99745887005699
6.4506775,1.13451466954135,1.98025221217392
6.500675,1.11147756960996,1.96307991838137
6.5506725,1.0884799174724,1.94594152466484
6.60067,1.06552109994279,1.92883657379409
6.6506675,1.04260051353768,1.91176461508406
6.700665,1.01971756436406,1.89472520415808
6.7506625,0.996871667998543,1.87771790271349
6.80066,0.974062249356892,1.86074227829011
6.8506575,0.951288742553267,1.84379790404165
6.900655,0.92855059074844,1.82688435851058
6.9506525,0.905847245986485,1.8100012254065
7.00065,0.883178169019487,1.79314809338832
7.0506475,0.860542829119975,1.77632455585049
7.100645,0.837940703881056,1.75953021071344
7.1506425,0.815371279004388,1.74276466021855
7.20064,0.792834048076457,1.72602751072763
7.2506375,0.770328512333927,1.70931837252728
7.300635,0.747854180419121,1.69263685963821
7.3506325,0.725410568127051,1.67598258962969
7.40063,0.702997198145776,1.65935518343924
7.4506275,0.680613599792119,1.64275426519783
7.500625,0.658259308745121,1.62617946206053
7.5506225,0.635933866779836,1.60963040404287
7.60062,0.613636821504241,1.59310672386305
7.6506175,0.591367726102137,1.57660805678997
7.700615,0.569126139084979,1.56013404049731
7.7506125,0.546911624055418,1.54368431492374
7.80061,0.524723749485233,1.52725852213928
7.8506075,0.502562088510003,1.51085630621804
7.900605,0.480426218742498,1.49447731311724
7.9506025,0.458315722106339,1.47812119056279
8.0006,0.43623018469088,1.46178758794135
8.0505975,0.414169196627757,1.44547615619905
8.100595,0.392132351988861,1.42918654774688
8.1505925,0.370119248704941,1.41291841637285
8.20059,0.348129488503393,1.39667141716098
8.2505875,0.326162676863282,1.38044520641724
8.300585,0.304218422985127,1.36423944160238
8.3505825,0.282296339772594,1.34805378127187
8.40058,0.260396043822927,1.33188788502289
8.4505775,0.23851715542277,1.3157414134485
8.500575,0.216659298545891,1.29961402809912
8.5505725,0.194822100849386,1.28350539145114
8.60057,0.173005193665016,1.2674151668831
8.6505675,0.151208211982513,1.25134301865913
8.700565,0.129430794421989,1.23528861192001
8.7505625,0.107672583192873,1.21925161268175
8.80056,0.085933224037158,1.20323168784185
8.8505575,0.0642123661551138,1.18722850519322
8.900555,0.0425096621120198,1.17124173344599
8.9505525,0.0208247677248048,1.15527104225711
9.00055,-0.0008426580721475,1.13931610226794
9.0505475,-0.0224929533824617,1.12337658514991
9.100545,-0.0441264535246739,1.10745216365825
9.1505425,-0.0657434912304925,1.09154251169397
9.20054,-0.0873443968641681,1.07564730437412
9.2505375,-0.108929498662575,1.05976621811044
9.300535,-0.130499122995506,1.04389893069657
9.3505325,-0.152053594645622,1.02804512140373
9.40053,-0.173593237107487,1.01220447108517
9.4505275,-0.195118372905122,0.996376662289399
9.500525,-0.216629323927533,0.980561379382251
9.5505225,-0.238126411781766,0.964758308678
9.60052,-0.259609958163071,0.948967138579528
9.6505175,-0.281080285241868,0.933187559727709
9.700515,-0.302537716067322,0.917419265160075
9.7505125,-0.323982574987398,0.901661950478887
9.80051,-0.345415188085402,0.885915314028707
9.8505075,-0.366835883633113,0.870179057083541
9.900505,-0.388244992560707,0.854452884043675
9.9505025,-0.409642848943799,0.838736502642275
10.0005,-0.431029790507991,0.823029624161815
10.0504975,-0.452406159151463,0.807331963660421
10.100495,-0.473772301486165,0.791643240208182
10.1504925,-0.495128569398345,0.775963177133463
10.20049,-0.51647532062915,0.76029150227927
10.2504875,-0.537812919376188,0.744627948269655
10.300485,-0.559141736916968,0.728972252786185
10.3504825,-0.580462152255281,0.713324158854423
10.40048,-0.601774552791611,0.697683415140367
10.4504775,-0.623079335018813,0.682049776256775
10.500475,-0.644376905244336,0.66642300307925
10.5504725,-0.665667680340441,0.65080286307191
10.60047,-0.686952088523911,0.635189130622468
10.6504675,-0.708230570166941,0.619581587386429
10.700465,-0.729503578641001,0.603980022640117
10.7504625,-0.750771581195651,0.588384233642107
10.80046,-0.772035059874453,0.57279402600262
10.8504575,-0.793294512470379,0.557209214060268
10.900455,-0.814550453523284,0.541629621265479
10.9504525,-0.835803415362358,0.526055080569725
11.00045,-0.857053949196714,0.510485434819515
11.0504475,-0.878302626257624,0.494920537153877
11.100445,-0.89955003899627,0.479360251403691
11.1504425,-0.920796802341246,0.46380445249087
11.20044,-0.942043555020409,0.448253026824765
11.2504375,-0.963290960952019,0.43270587269238
11.300435,-0.984539710710367,0.41716290063787
11.3504325,-1.0057905230711,0.401624033825161
11.40043,-1.02704414664122,0.386089208375181
11.4504275,-1.04830136157784,0.370558373665645
11.500425,-1.06956298139779,0.355031492576051
11.5504225,-1.09082985487666,0.339508541652248
11.60042,-1.1121028680291,0.323989511152043
11.6504175,-1.13338294615023,0.308474404912372
11.700415,-1.1546710558775,0.292963239944156
11.7504125,-1.17596820719456,0.277456045602504
11.80041,-1.19727545523175,0.261952862077741
11.8504075,-1.2185939015923,0.246453737767317
11.900405,-1.23992469469257,0.230958724738239
11.9504025,-1.26126902812055,0.215467870793967
12.0004,-1.28262813498897,0.199981205196582
12.0503975,-1.30400327392135,0.18449871179542
12.100395,-1.32539569651591,0.169020275212034
12.1503925,-1.346806570163,0.15354556353652
12.20039,-1.36823677906043,0.13807374126557
12.2503875,-1.38968632841071,0.122602639716987
12.300385,-1.41115203939874,0.107125657954014
12.3503825,-1.43261292609909,0.0916133279492853
12.40038,-1.45457113371198,0.0757984093286962
12.4503775,-1.47595684288963,0.0610924628787753
12.500375,-1.49749205401877,0.0455593260252178
12.5503725,-1.51911080741273,0.0301105573759202
12.60037,-1.54077955179187,0.0146876372856773
12.6503675,-1.56249466196587,-0.000719409749666633
12.700365,-1.58425731150661,-0.0161132640434857
12.7503625,-1.60607021316644,-0.0314945725878499
12.80036,-1.62793686314049,-0.0468631881265192
12.8503575,-1.64986132361974,-0.0622185613553133
12.900355,-1.671848166967,-0.0775598868340857
12.9503525,-1.69390248190618,-0.092886160784843
13.00035,-1.71602990968448,-0.108196202367911
13.0503475,-1.73823669866658,-0.123488658184529
13.100345,-1.76052977314156,-0.138761998759786
13.1503425,-1.78291681513737,-0.15401451162781
13.20034,-1.80540635948918,-0.169244294096162
13.2503375,-1.82800790327073,-0.184449248324639
13.300335,-1.85073203137009,-0.199627081435664
13.3503325,-1.87359056067481,-0.214775313708828
13.40033,-1.89659670616674,-0.229891298319959
13.4503275,-1.91976527335398,-0.244972256369986
13.500325,-1.94311288306557,-0.26001533083023
13.5503225,-1.96665823695305,-0.275017662075539
13.60032,-1.99042243544835,-0.289976485229927
13.6503175,-2.01442936495527,-0.304889244673008
13.700315,-2.03870617849494,-0.319753712518964
13.7503125,-2.06328390504739,-0.334568084292196
13.80031,-2.08819823913722,-0.349331005291382
13.8503075,-2.11349058629473,-0.364041455548174
13.900305,-2.13920947551506,-0.378698393694059
13.9503025,-2.1654125020218,-0.393300041590652
14.0003,-2.19216904020713,-0.40784270617042
14.0502975,-2.21956407879567,-0.422319125471936
14.100295,-2.24770369457751,-0.436716557569983
14.1502925,-2.27672292213269,-0.451015284652162
14.20029,-2.30679713262566,-0.46518894822333
14.2502875,-2.33815856580495,-0.479209164588626
14.300285,-2.37112047215294,-0.493058039958917
14.3502825,-2.40611262833644,-0.50675311450731
14.40028,-2.44373428524771,-0.520389173814788
14.4502775,-2.48483526259,-0.534199102903992
14.500275,-2.5306471841965,-0.548630377870727
14.5502725,-2.58301920665014,-0.564428493679129
14.60027,-2.64491816103281,-0.582748562961843
14.6502675,-2.72173429678043,-0.605571588150084
14.700265,-2.82548562288796,-0.638121458789822
14.7502625,-2.99177404032777,-0.702974068132615
14.80026,2.9080582867561,-0.933823375049561
14.8502575,1.53855581656239,-2.01255066932028
14.900255,-0.116065258379751,-2.87598971891821
14.9502525,-1.80332714107877,-1.54496559174436
15.00025,-2.58589247356455,-1.39790883826031
15.0502475,-2.69168814285449,-1.33544542228335
15.100245,-2.72401510441652,-1.29999029983029
15.1502425,-2.74109343115439,-1.2792859356383
15.20024,-2.7538624589493,-1.26758245279321
15.2502375,-2.76549378338711,-1.2617824540989
15.300235,-2.77711943554631,-1.26009395154615
15.3502325,-2.78916027206543,-1.26141156121367
15.40023,-2.80175169213354,-1.26501278079535
15.4502275,-2.81490950144942,-1.27040128162479
15.500225,-2.82860118338977,-1.27722178050698
15.5502225,-2.84277761911015,-1.2852113322304
15.60022,-2.8573870627957,-1.29417003480816
15.6502175,-2.87238092724263,-1.30394257893149
15.700215,-2.88771579316798,-1.3144061377195
15.7502125,-2.90335372891783,-1.32546212620754
15.80021,-2.91926191039092,-1.33703041778489
15.8502075,-2.93541200346607,-1.34904517697069
15.900205,-2.95177951608438,-1.36145178945891
15.9502025,-2.96834320466605,-1.37420455779341
16.0002,-2.98508456214185,-1.38726494413317
16.0501975,-3.00198738931477,-1.40060021205123
16.100195,-3.01903744106449,-1.41418236456282
16.1501925,-3.03622213589201,-1.42798730543204
16.20019,-3.05353031745007,-1.44199417099224
16.2501875,-3.07095205807391,-1.45618479367318
16.300185,-3.08847849600818,-1.470543268271
16.3501825,-3.10610169963133,-1.4850555990649
16.40018,-3.12381455336205,-1.4997094110401
16.4501775,3.14157464611472,-1.51449371229032
16.500175,3.12370104350667,-1.52939869753087
16.5501725,3.1057551387295,-1.54441558481752
16.60017,3.08774161931887,-1.55953647922282
16.6501675,3.06966472074362,-1.57475425849969
16.700165,3.05152827282863,-1.59006247675657
16.7501625,3.03333574050193,-1.60545528294815
16.80016,3.01509025970625,-1.62092735159978
16.8501575,2.99679466916281,-1.63647382367149
16.900155,2.97845153855588,-1.65209025585599
16.9501525,2.96006319361147,-1.66777257691674
17.00015,2.94163173846776,-1.68351704992229
17.0501475,2.92315907567356,-1.69932023943636
17.100145,2.9046469241015,-1.71517898288661
17.1501425,2.88609683502121,-1.73109036546957
17.20014,2.86751020654416,-1.74705169805793
17.2501375,2.84888829662334,-1.76306049766631
17.300135,2.83023223476692,-1.77911447010506
17.3501325,2.81154303260499,-1.79521149451248
17.40013,2.79282159343093,-1.81134960950617
17.4501275,2.77406872082426,-1.82752700073549
17.500125,2.75528512644902,-1.84374198965231
17.5501225,2.7364714371105,-1.85999302334557
17.60012,2.71762820114345,-1.87627866530961
17.6501175,2.69875589419671,-1.89259758703634
17.700115,2.67985492447133,-1.90894856033828
17.7501125,2.66092563746315,-1.92533045032374
17.80011,2.64196832025485,-1.94174220895742
17.8501075,2.62298320539729,-1.95818286914988
17.900105,2.60397047441571,-1.97465153932788
17.9501025,2.5849302609721,-1.99114739844464
18.0001,2.56586265371159,-2.00766969139555
18.0500975,2.54676769881743,-2.02421772480947
18.100095,2.52764540229648,-2.04079086319074
18.1500925,2.50849573201409,-2.05738852539011
18.20009,2.48931861949565,-2.07401018138623
18.2500875,2.47011396150917,-2.09065534936178
18.300085,2.4508816214422,-2.10732359306063
18.3500825,2.43162143048399,-2.12401451941384
18.40008,2.41233318862269,-2.14072777642425
18.4500775,2.39301666546584,-2.15746305130027
18.500075,2.37367160089102,-2.17422006883057
18.5500725,2.35429770553255,-2.1909985899921
18.60007,2.33489466110881,-2.20779841078458
18.6500675,2.31546212059401,-2.22461936128489
18.700065,2.29599970823712,-2.24146130491529
18.7500625,2.2765070194299,-2.25832413791955
18.80006,2.25698362042524,-2.27520778904123
18.8500575,2.23742904790611,-2.2921122193986
18.900055,2.21784280840503,-2.30903742255052
18.9500525,2.19822437757299,-2.32598342474775
19.00005,2.17857319929648,-2.3429502853642
19.0500475,2.15888868466045,-2.35993809750245
19.100045,2.13917021075471,-2.37694698876796
19.1500425,2.11941711932077,-2.39397712220642
19.20004,2.09962871523543,-2.41102869739842
19.2500375,2.07980426482735,-2.42810195170601
19.300035,2.05994299402219,-2.44519716166527
19.3500325,2.04004408631163,-2.4623146445196
19.40003,2.0201066805411,-2.47945475988784
19.4500275,2.00012986851117,-2.49661791156214
19.500025,1.98011269238586,-2.51380454943065
19.5500225,1.96005414190501,-2.5310151715174
19.60002,1.93995315138894,-2.54825032613966
19.6500175,1.91980859653543,-2.56551061417181
19.700015,1.89961929099811,-2.58279669141562
19.7500125,1.87938398274136,-2.60010927107094
19.80001,1.85910135016479,-2.61744912630305
19.8500075,1.8387699979905,-2.63481709290315
19.900005,1.8183884529065,-2.65221407203849
19.9500025,1.79795515895969,-2.66964103308916
20,1.77746847269209,-2.68709901656875

