"Freq [GHz]","Antenna to Waveport 2 [rad]","Antenna to Waveport 1 [rad]"
0.001,1.56967384391642,1.56927926051144
0.0084975,1.56125772937246,1.55790536599171
0.015995,1.55284166758013,1.5465314677729
0.0234925,1.54442564830919,1.53515761910173
0.03099,1.53600968967294,1.52378384492178
0.0384875,1.52759381051584,1.51241016975932
0.045985,1.51917802980739,1.50103661818699
0.0534825,1.5107623665,1.48966321478079
0.06098,1.50234683947474,1.4782899839908
0.0684775,1.49393146751342,1.46691694999959
0.075975,1.4855162692795,1.45554413659362
0.0834725,1.47710126330152,1.44417156705493
0.09097,1.46868646795424,1.43279926407034
0.0984675,1.46027190143745,1.42142724965481
0.105965,1.45185752567722,1.41005551509821
0.1134625,1.44344340846077,1.39868411525855
0.12096,1.43502958285814,1.38731308236955
0.1284575,1.42661606672863,1.37594243990843
0.135955,1.41820287801852,1.36457221142844
0.1434525,1.40979003471416,1.35320242053066
0.15095,1.40137755480764,1.34183309084377
0.1584475,1.39296545627108,1.33046424600912
0.165945,1.38455375703654,1.31909590966945
0.1734425,1.37614247498024,1.30772810546009
0.18094,1.36773162790947,1.29636085700202
0.1884375,1.35932123355174,1.28499418789622
0.195935,1.35091130954539,1.27362812171892
0.2034325,1.34250187343145,1.26226268201766
0.21093,1.33409294264633,1.2508978923078
0.2184275,1.3256845345152,1.23953377606946
0.225925,1.3172766662459,1.22817035674482
0.2334225,1.30886935492333,1.2168076577356
0.24092,1.30046261750412,1.20544570240079
0.2484175,1.2920564708116,1.19408451405451
0.255915,1.28365093153106,1.182724115964
0.2634125,1.27524601620515,1.17136453134773
0.27091,1.26684174122947,1.16000578337354
0.2784075,1.25843812284834,1.14864789515694
0.285905,1.25003517715066,1.1372908897594
0.2934025,1.24163292006595,1.12593479018668
0.3009,1.23323136736044,1.11457961938732
0.3083975,1.22483053463331,1.10322540025099
0.315895,1.21643043731303,1.09187215560705
0.3233925,1.20803109065374,1.08051990822299
0.33089,1.19963250973182,1.06916868080305
0.3383875,1.1912347094424,1.05781849598669
0.345885,1.18283770449613,1.04646937634725
0.3533825,1.17444150941588,1.03512134439055
0.36088,1.1660461385336,1.02377442255348
0.3683775,1.15765160598724,1.01242863320268
0.375875,1.14925792571777,1.0010839986332
0.3833725,1.14086511146626,0.989740541067181
0.39087,1.13247317677102,0.978398282652575
0.3983675,1.12408213496484,0.967057245461836
0.405865,1.11569199917234,0.955717451490677
0.4133625,1.10730278230735,0.944378922656807
0.42086,1.09891449707036,0.933041680798707
0.4283575,1.09052715594613,0.921705747674407
0.435855,1.08214077120126,0.910371144960283
0.4433525,1.07375535488196,0.899037894249868
0.45085,1.06537091881182,0.887706017052683
0.4583475,1.05698747458967,0.876375534793072
0.465845,1.04860503358756,0.865046468809065
0.4733425,1.04022360694878,0.85371884035124
0.48084,1.03184320558598,0.842392670581616
0.4883375,1.02346384017937,0.831067980572549
0.495835,1.015085521175,0.819744791305643
0.5033325,1.00670825878309,0.808423123670685
0.51083,0.998332062976537,0.797102998464579
0.5183275,0.989956943489383,0.785784436390306
0.525825,0.981582909815448,0.7744674580559
0.5333225,0.973209971207017,0.763152083973422
0.54082,0.964838136673613,0.751838334557969
0.5483175,0.956467414980854,0.74052623012668
0.555815,0.948097814649395,0.729215790897765
0.5633125,0.939729343953949,0.717907036989546
0.57081,0.931362010922397,0.706599988419514
0.5783075,0.922995823334972,0.695294665103387
0.585805,0.914630788723536,0.683991086854205
0.5933025,0.906266914370934,0.672689273381411
0.6008,0.897904207310434,0.661389244289966
0.6082975,0.88954267432524,0.650091019079465
0.615795,0.881182321948097,0.638794617143259
0.6232925,0.872823156460957,0.627500057767599
0.63079,0.864465183894735,0.616207360130763
0.6382875,0.856108410029109,0.604916543302189
0.645785,0.847752840392364,0.593627626241571
0.6532825,0.839398480261224,0.582340627797862
0.66078,0.831045334660522,0.571055566708071
0.6682775,0.822693408362295,0.559772461595392
0.675775,0.814342705882731,0.548491330965133
0.6832725,0.80599323146898,0.537212193190426
0.69077,0.797644989000375,0.5259350664123
0.6982675,0.789297993592499,0.514659980142508
0.705765,0.780952216949705,0.503386920614755
0.7132625,0.772607692596114,0.492115936014337
0.72076,0.764264414154682,0.480847034755766
0.7282575,0.755922384293087,0.469580234427178
0.735755,0.747581605527089,0.45831555259211
0.7432525,0.739242080144195,0.447053006711557
0.75075,0.730903810193219,0.435792614131824
0.7582475,0.722566797482485,0.424534392080979
0.765745,0.714231043580066,0.413278357667266
0.7732425,0.70589654981468,0.402024527878121
0.78074,0.697563317276892,0.390772919579415
0.7882375,0.68923134682046,0.379523549514802
0.795735,0.680900639063819,0.368276434305117
0.8032325,0.672571194391643,0.357031590447816
0.81073,0.664243012956505,0.345789034316428
0.8182275,0.655916094680602,0.334548782160035
0.825725,0.647590439257564,0.323310850102762
0.8332225,0.639266046154334,0.312075254143283
0.84072,0.630942914613114,0.300842010154337
0.8482175,0.622621043653393,0.289611133882267
0.855715,0.614300432074026,0.278382640946554
0.8632125,0.605981078455399,0.267156546839379
0.87071,0.597662981161646,0.255932866925187
0.8782075,0.589346138342941,0.244711616440268
0.885705,0.581030547937855,0.233492810492344
0.8932025,0.572716207675764,0.222276464060176
0.9007,0.564403115079338,0.211062591993167
0.9081975,0.556091267467083,0.199851209010998
0.915695,0.547780661955937,0.188642329703251
0.9231925,0.539471295463944,0.177435968529064
0.93069,0.531163164712966,0.16623213981678
0.9381875,0.52285626623147,0.155030857763623
0.945685,0.514550596357363,0.143832136435367
0.9531825,0.506246151240887,0.132635989766032
0.96068,0.497942926847562,0.12144243155758
0.9681775,0.489640918961195,0.110251475479629
0.975675,0.481340123186927,0.0990631350691686
0.9831725,0.473040534954347,0.0878774237302949
0.99067,0.464742149520642,0.0766943547339533
0.9981675,0.456444961973807,0.0655139412176882
1.005665,0.448148967235898,0.0543361961854072
1.0131625,0.439854160066336,0.0431611325071546
1.02066,0.43156053506525,0.0319887629188934
1.0281575,0.423268086676875,0.0208191000223022
1.035655,0.414976809192984,0.00965215628457599
1.0431525,0.406686696756366,-0.00151205596175761
1.05065,0.398397743364352,-0.0126735245190139
1.0581475,0.390109942872367,-0.0238322373245154
1.065645,0.381823288997535,-0.0349881824507481
1.0731425,0.373537775322314,-0.0461413481055034
1.08064,0.365253395298163,-0.0572917226320163
1.0881375,0.35697014224926,-0.0684392945090861
1.095635,0.348688009376234,-0.0795840523511917
1.1031325,0.340406989759946,-0.0907259849085948
1.11063,0.33212707636529,-0.101865081067434
1.1181275,0.323848262045034,-0.113001329849807
1.125625,0.315570539543675,-0.124134720413844
1.1331225,0.30729390150134,-0.135265242053771
1.14062,0.299018340457698,-0.146392884199963
1.1481175,0.290743848855903,-0.157517636418982
1.155615,0.282470419046564,-0.168639488413614
1.1631125,0.274198043291723,-0.179758430022888
1.17061,0.265926713768872,-0.190874451222088
1.1781075,0.257656422574978,-0.201987542122753
1.185605,0.249387161730526,-0.213097692972667
1.1931025,0.241118923183583,-0.224204894155842
1.2006,0.232851698813873,-0.235309136192483
1.2080975,0.224585480436872,-0.246410409738953
1.215595,0.216320259807904,-0.257508705587715
1.2230925,0.208056028626261,-0.268604014667275
1.23059,0.199792778539324,-0.279696328042104
1.2380875,0.191530501146692,-0.290785636912563
1.245585,0.183269188004323,-0.301871932614801
1.2530825,0.175008830628677,-0.312955206620653
1.26058,0.166749420500861,-0.324035450537527
1.2680775,0.158490949070777,-0.335112656108272
1.275575,0.150233407761275,-0.346186815211047
1.2830725,0.1419767879723,-0.357257919859168
1.29057,0.13372108108504,-0.368325962200952
1.2980675,0.125466278466068,-0.379390934519544
1.305565,0.117212371471481,-0.390452829232738
1.3130625,0.108959351451031,-0.401511638892782
1.32056,0.100707209752251,-0.412567356186179
1.3280575,0.0924559377245664,-0.423619973933465
1.335555,0.0842055267233992,-0.434669485088989
1.3430525,0.0759559681142591,-0.445715882740674
1.35055,0.0677072532768184,-0.456759160109764
1.3580475,0.059459373608976,-0.46779931055057
1.365545,0.0512123205308991,-0.478836327550192
1.3730425,0.0429660854890496,-0.48987020472824
1.38054,0.0347206599601903,-0.500900935836535
1.3880375,0.0264760354553693,-0.511928514758808
1.395535,0.0182322035238813,-0.522952935510373
1.4030325,0.0099891557572037,-0.533974192237805
1.41053,0.00174688379290993,-0.544992279218592
1.4180275,-0.00649462068144927,-0.556007190860784
1.425525,-0.0147353659244885,-0.567018921702628
1.4330225,-0.0229753601371649,-0.578027466412186
1.44052,-0.0312146114589835,-0.58903281978695
1.4480175,-0.0394531279642385,-0.600034976753438
1.455515,-0.0476909176582877,-0.611033932366779
1.4630125,-0.0559279884738629,-0.62202968181029
1.47051,-0.06416434826742,-0.633022220395036
1.4780075,-0.0724000048155232,-0.644011543559378
1.485505,-0.0806349658112751,-0.654997646868518
1.4930025,-0.088869238860785,-0.665980526014014
1.5005,-0.0971028314796813,-0.676960176813302
1.5079975,-0.105335751089668,-0.687936595209193
1.515495,-0.113568005015128,-0.698909777269362
1.5229925,-0.12179960047977,-0.709879719185825
1.53049,-0.130030544603331,-0.720846417274407
1.5379875,-0.138260844398319,-0.731809867974185
1.545485,-0.146490506766817,-0.742770067846939
1.5529825,-0.154719538497329,-0.753727013576571
1.56048,-0.162947946261686,-0.764680701968524
1.5679775,-0.171175736612008,-0.775631129949186
1.575475,-0.179402915977713,-0.786578294565279
1.5829725,-0.187629490662597,-0.79752219298324
1.59047,-0.195855466841957,-0.808462822488586
1.5979675,-0.204080850559782,-0.819400180485268
1.605465,-0.212305647726007,-0.830334264495017
1.6129625,-0.220529864113819,-0.841265072156673
1.62046,-0.228753505357035,-0.852192601225501
1.6279575,-0.236976576947536,-0.863116849572502
1.635455,-0.245199084232769,-0.874037815183706
1.6429525,-0.253421032413316,-0.884955496159456
1.65045,-0.261642426540525,-0.895869890713677
1.6579475,-0.269863271514211,-0.906780997173142
1.665445,-0.278083572080422,-0.917688813976712
1.6729425,-0.286303332829281,-0.928593339674582
1.68044,-0.294522558192883,-0.939494572927501
1.6879375,-0.302741252443282,-0.950392512505986
1.695435,-0.310959419690528,-0.961287157289531
1.7029325,-0.319177063880791,-0.972178506265795
1.71043,-0.32739418879455,-0.983066558529784
1.7179275,-0.335610798044853,-0.993951313283025
1.725425,-0.343826895075655,-1.00483276983272
1.7329225,-0.352042483160227,-1.01571092759091
1.74042,-0.360257565399635,-1.0265857860736
1.7479175,-0.368472144721303,-1.03745734489988
1.755415,-0.376686223877635,-1.04832560379109
1.7629125,-0.384899805444727,-1.05919056256987
1.77041,-0.393112891821147,-1.0700522211593
1.7779075,-0.401325485226785,-1.08091057958199
1.785405,-0.409537587701787,-1.09176563795914
1.7929025,-0.41774920110556,-1.10261739650963
1.8004,-0.425960327115852,-1.11346585554908
1.8078975,-0.434170967227904,-1.12431101548892
1.815395,-0.442381122753682,-1.13515287683539
1.8228925,-0.450590794821182,-1.14599144018865
1.83039,-0.458799984373808,-1.15682670624176
1.8378875,-0.467008692169824,-1.16765867577972
1.845385,-0.475216918781885,-1.17848734967851
1.8528825,-0.483424664596637,-1.18931272890405
1.86038,-0.491631929814394,-1.20013481451126
1.8678775,-0.499838714448906,-1.21095360764307
1.875375,-0.508045018327208,-1.22176910952943
1.8828725,-0.516250841089676,-1.23258132148646
1.89037,-0.524456182190834,-1.24339024491628
1.8978675,-0.532661040915084,-1.25419588132173
1.905365,-0.540865416248359,-1.26499823217682
1.9128625,-0.549069307215933,-1.27579729926341
1.92036,-0.557272712456814,-1.28659308424428
1.9278575,-0.565475630497549,-1.29738558893564
1.935355,-0.573678059673452,-1.3081748152269
1.9428525,-0.581879998133871,-1.3189607650845
1.95035,-0.590081443843169,-1.32974344055132
1.9578475,-0.598282394581372,-1.34052284374575
1.965345,-0.606482847944821,-1.35129897686064
1.9728425,-0.614682801346857,-1.36207184216225
1.98034,-0.622882252018561,-1.37284144198923
1.9878375,-0.631081197009545,-1.38360777875155
1.995335,-0.639279633188807,-1.39437085492942
2.0028325,-0.647477557245629,-1.40513067307226
2.01033,-0.655674965690535,-1.41588723579763
2.0178275,-0.663871854856303,-1.42664054579017
2.025325,-0.672068220899019,-1.43739060580055
2.0328225,-0.68026405979919,-1.44813741864443
2.04032,-0.688459367362899,-1.45888098720138
2.0478175,-0.696654139223008,-1.46962131441386
2.055315,-0.704848370840407,-1.48035840328615
2.0628125,-0.713042057505306,-1.49109225688334
2.07031,-0.721235194338567,-1.50182287833027
2.0778075,-0.729427776293081,-1.51255027081051
2.085305,-0.737619798155178,-1.52327443756534
2.0928025,-0.745811254546081,-1.53399538189271
2.1003,-0.75400213992339,-1.54471310714628
2.1077975,-0.762192448582607,-1.55542761673434
2.115295,-0.770382174658688,-1.56613891411887
2.1227925,-0.778571312127628,-1.57684700281453
2.13029,-0.78675985480808,-1.58755188638771
2.1377875,-0.794947796362998,-1.5982535684555
2.145285,-0.803135130301308,-1.60895205268478
2.1527825,-0.811321849979608,-1.61964734279127
2.16028,-0.819507948603886,-1.63033944253857
2.1677775,-0.82769341923127,-1.64102835573722
2.175275,-0.835878254771791,-1.65171408624385
2.1827725,-0.84406244799017,-1.66239663796022
2.19027,-0.852245991507626,-1.67307601483234
2.1977675,-0.860428877803697,-1.68375222084964
2.205265,-0.868611099218084,-1.69442526004405
2.2127625,-0.876792647952506,-1.70509513648922
2.22026,-0.884973516072568,-1.71576185429965
2.2277575,-0.893153695509648,-1.7264254176299
2.235255,-0.901333178062792,-1.73708583067379
2.2427525,-0.909511955400622,-1.74774309766365
2.25025,-0.917690019063257,-1.75839722286953
2.2577475,-0.925867360464235,-1.7690482105985
2.265245,-0.934043970892458,-1.77969606519391
2.2727425,-0.94221984151413,-1.79034079103469
2.28024,-0.950394963374718,-1.80098239253474
2.2877375,-0.958569327400907,-1.81162087414219
2.295235,-0.966742924402566,-1.82225624033883
2.3027325,-0.974915745074726,-1.8328884956395
2.31023,-0.983087779999556,-1.84351764459151
2.3177275,-0.991259019648348,-1.85414369177404
2.325225,-0.999429454383505,-1.86476664179771
2.3327225,-1.00759907446054,-1.87538649930397
2.34022,-1.01576787003007,-1.8860032689647
2.3477175,-1.02393583113983,-1.89661695548172
2.355215,-1.03210294773666,-1.90722756358638
2.3627125,-1.04026920966856,-1.9178350980392
2.37021,-1.04843460668668,-1.92843956362947
2.3777075,-1.05659912844735,-1.93904096517493
2.385205,-1.06476276451412,-1.94963930752147
2.3927025,-1.07292550435978,-1.9602345955429
2.4002,-1.08108733736846,-1.97082683414065
2.4076975,-1.0892482528376,-1.98141602824361
2.415195,-1.09740823998008,-1.99200218280799
2.4226925,-1.10556728792628,-2.00258530281711
2.43019,-1.11372538572613,-2.01316539328136
2.4376875,-1.12188252235121,-2.02374245923816
2.445185,-1.13003868669689,-2.03431650575185
2.4526825,-1.1381938675844,-2.0448875379138
2.46018,-1.14634805376296,-2.0554555608424
2.4676775,-1.15450123391197,-2.06602057968318
2.475175,-1.1626533966431,-2.07658259960892
2.4826725,-1.17080453050253,-2.08714162581984
2.49017,-1.17895462397311,-2.09769766354379
2.4976675,-1.18710366547654,-2.10825071803655
2.505165,-1.1952516433757,-2.11880079458205
2.5126625,-1.20339854597678,-2.12934789849279
2.52016,-1.21154436153168,-2.13989203511016
2.5276575,-1.21968907824022,-2.15043320980491
2.535155,-1.22783268425253,-2.1609714279776
2.5426525,-1.23597516767136,-2.17150669505912
2.55015,-1.24411651655452,-2.18203901651126
2.5576475,-1.25225671891724,-2.19256839782731
2.565145,-1.26039576273468,-2.20309484453276
2.5726425,-1.26853363594438,-2.21361836218594
2.58014,-1.27667032644878,-2.22413895637883
2.5876375,-1.28480582211778,-2.23465663273786
2.595135,-1.29294011079136,-2.24517139692473
2.6026325,-1.30107318028218,-2.25568325463736
2.61013,-1.3092050183783,-2.26619221161082
2.6176275,-1.31733561284585,-2.27669827361834
2.625125,-1.32546495143179,-2.28720144647233
2.6326225,-1.33359302186648,-2.29770173602528
2.64012,-1.34171981186103,-2.30819914816537
2.6476175,-1.34984530914954,-2.31869368885704
2.655115,-1.35796950139578,-2.32918536404599
2.6626125,-1.36609237631076,-2.3396741797751
2.67011,-1.37421392158663,-2.35016014211652
2.6776075,-1.38233412491813,-2.3606432571916
2.685105,-1.39045297400506,-2.37112353117152
2.6926025,-1.39857045655534,-2.38160097027879
2.7001,-1.40668656028838,-2.39207558078883
2.7075975,-1.4148012729384,-2.40254736903164
2.715095,-1.42291458225787,-2.41301634139357
2.7225925,-1.43102647602108,-2.42348250431908
2.73009,-1.43913694202761,-2.43394586431264
2.7375875,-1.44724596810605,-2.44440642794061
2.745085,-1.45535354211767,-2.45486420183326
2.7525825,-1.46345965196021,-2.4653191926868
2.76008,-1.47156428557172,-2.47577140726547
2.7675775,-1.47966743093451,-2.48622085240373
2.775075,-1.4877690760791,-2.49666753500848
2.7825725,-1.49586920908832,-2.50711146206136
2.79007,-1.50396781810143,-2.51755264062111
2.7975675,-1.51206489131837,-2.52799107782599
2.805065,-1.52016041700402,-2.53842678089627
2.8125625,-1.5282543834926,-2.54885975713676
2.82006,-1.5363467791921,-2.55929001393947
2.8275575,-1.5444375925888,-2.56971755878625
2.835055,-1.55252681225191,-2.58014239925155
2.8425525,-1.5606144268382,-2.59056454300526
2.85005,-1.56870042509683,-2.60098399781555
2.8575475,-1.57678479587414,-2.61140077155183
2.865045,-1.58486752811857,-2.62181487218778
2.8725425,-1.59294861088573,-2.63222630780441
2.88004,-1.60102803334338,-2.64263508659323
2.8875375,-1.60910578477669,-2.65304121685941
2.895035,-1.61718185459342,-2.66344470702515
2.9025325,-1.62525623232927,-2.67384556563294
2.91003,-1.63332890765327,-2.68424380134905
2.9175275,-1.64139987037328,-2.69463942296696
2.925025,-1.64946911044153,-2.70503243941095
2.9325225,-1.65753661796027,-2.71542285973972
2.94002,-1.66560238318751,-2.72581069315007
2.9475175,-1.67366639654278,-2.73619594898064
2.955015,-1.68172864861304,-2.74657863671579
2.9625125,-1.68978913015861,-2.75695876598945
2.97001,-1.69784783211921,-2.7673363465891
2.9775075,-1.70590474562009,-2.77771138845982
2.985005,-1.71395986197817,-2.78808390170837
2.9925025,-1.72201317270832,-2.79845389660736
3,-1.73006466952969,-2.80882138359952
