"Freq [GHz]","Antenna to Waveport 2 [rad]","Antenna to Waveport 1 [rad]"
0.1,1.41594860447234,1.48557667390022
0.10225,1.41218246270376,1.48336479789846
0.1045,1.40841866851187,1.48115508515137
0.10675,1.40465705217834,1.47894735960372
0.109,1.40089746359338,1.47674146597054
0.11125,1.39713976983814,1.47453726719318
0.1135,1.39338385307314,1.47233464221277
0.11575,1.38962960869238,1.47013348401935
0.118,1.38587694370773,1.46793369794074
0.12025,1.3821257753341,1.46573520014064
0.1225,1.37837602974932,1.46353791629932
0.12475,1.37462764100658,1.46134178045413
0.127,1.37088055008021,1.45914673397992
0.12925,1.36713470402812,1.4569527246924
0.1315,1.3633900552564,1.45475970605912
0.13375,1.3596465608734,1.45256763650535
0.136,1.35590418212244,1.45037647880325
0.13825,1.35216288388344,1.4481861995344
0.1405,1.34842263423509,1.44599676861699
0.14275,1.34468340407024,1.44380815888985
0.145,1.3409451667581,1.44162034574677
0.14725,1.33720789784754,1.43943330681505
0.1495,1.33347157480653,1.43724702167299
0.15175,1.32973617679349,1.43506147160192
0.154,1.32600168445655,1.43287663936852
0.15625,1.32226807975752,1.43069250903397
0.1585,1.31853534581745,1.42850906578665
0.16075,1.31480346678128,1.42632629579578
0.163,1.31107242769933,1.4241441860833
0.16525,1.30734221442343,1.42196272441205
0.1675,1.30361281351608,1.41978189918814
0.16975,1.29988421217099,1.41760169937592
0.172,1.29615639814365,1.41542211442396
0.17425,1.29242935969068,1.41324313420081
0.1765,1.28870308551693,1.4110647489393
0.17875,1.28497756472931,1.40888694918831
0.181,1.28125278679662,1.40670972577117
0.18325,1.27752874151457,1.40453306974987
0.1855,1.27380541897534,1.40235697239425
0.18775,1.27008280954118,1.40018142515574
0.19,1.26636090382145,1.39800641964487
0.19225,1.26263969265276,1.39583194761222
0.1945,1.25891916708175,1.39365800093229
0.19675,1.25519931835019,1.39148457158999
0.199,1.25148013788207,1.38931165166927
0.20125,1.24776161727254,1.38713923334374
0.2035,1.24404374827829,1.38496730886895
0.20575,1.24032652280924,1.38279587057607
0.208,1.23660993292149,1.3806249108669
0.21025,1.23289397081111,1.37845442220978
0.2125,1.22917862880889,1.37628439713657
0.21475,1.22546389937575,1.37411482824031
0.217,1.22174977509886,1.37194570817352
0.21925,1.21803624868818,1.36977702964705
0.2215,1.21432331297357,1.36760878542948
0.22375,1.21061096090223,1.36544096834671
0.226,1.20689918553643,1.36327357128205
0.22825,1.20318798005164,1.36110658717639
0.2305,1.19947733773471,1.35894000902874
0.23275,1.19576725198242,1.35677382989671
0.235,1.19205771630008,1.35460804289734
0.23725,1.18834872430025,1.35244264120781
0.2395,1.18464026970165,1.35027761806632
0.24175,1.18093234632804,1.34811296677297
0.244,1.17722494810727,1.34594868069065
0.24625,1.17351806907032,1.34378475324593
0.2485,1.16981170335036,1.3416211779299
0.25075,1.16610584518188,1.33945794829905
0.253,1.16240048889983,1.33729505797602
0.25525,1.15869562893873,1.3351325006504
0.2575,1.15499125983182,1.33297027007939
0.25975,1.15128737621018,1.33080836008846
0.262,1.14758397280191,1.32864676457193
0.26425,1.14388104443118,1.32648547749349
0.2665,1.14017858601739,1.32432449288665
0.26875,1.13647659257426,1.32216380485516
0.271,1.13277505920887,1.32000340757331
0.27325,1.12907398112081,1.31784329528619
0.2755,1.12537335360116,1.31568346230995
0.27775,1.12167317203154,1.31352390303188
0.28,1.11797343188319,1.31136461191054
0.28225,1.1142741287159,1.30920558347576
0.2845,1.11057525817708,1.30704681232862
0.28675,1.10687681600068,1.3048882931414
0.289,1.10317879800624,1.3027300206574
0.29125,1.09948120009777,1.30057198969078
0.2935,1.09578401826279,1.29841419512636
0.29575,1.09208724857119,1.29625663191931
0.298,1.08839088717425,1.29409929509488
0.30025,1.08469493030352,1.29194217974802
0.3025,1.08099937426978,1.28978528104302
0.30475,1.07730421546195,1.28762859421306
0.307,1.07360945034602,1.28547211455981
0.30925,1.06991507546398,1.28331583745288
0.3115,1.06622108743273,1.28115975832939
0.31375,1.06252748294301,1.27900387269338
0.316,1.05883425875834,1.27684817611527
0.31825,1.0551414117139,1.2746926642313
0.3205,1.05144893871554,1.2725373327429
0.32275,1.04775683673863,1.27038217741612
0.325,1.04406510282706,1.26822719408096
0.32725,1.04037373409219,1.26607237863071
0.3295,1.03668272771174,1.26391772702137
0.33175,1.03299208092883,1.26176323527089
0.334,1.0293017910509,1.25960889945854
0.33625,1.02561185544869,1.2574547157242
0.3385,1.02192227155524,1.25530068026769
0.34075,1.01823303686489,1.25314678934803
0.343,1.01454414893227,1.25099303928275
0.34525,1.0108556053713,1.24883942644718
0.3475,1.00716740385427,1.24668594727373
0.34975,1.00347954211081,1.24453259825117
0.352,0.999792017926983,1.24237937592389
0.35425,0.996104829144317,1.24022627689121
0.3565,0.992417973658893,1.23807329780666
0.35875,0.988731449420416,1.2359204353772
0.361,0.985045254431315,1.23376768636257
0.36325,0.981359386745838,1.23161504757455
0.3655,0.977673844469183,1.22946251587622
0.36775,0.973988625756616,1.22731008818126
0.37,0.970303728812619,1.22515776145326
0.37225,0.966619151890044,1.22300553270498
0.3745,0.962934893289277,1.22085339899768
0.37675,0.95925095135742,1.2187013574404
0.379,0.955567324487478,1.21654940518928
0.38125,0.95188401111757,1.21439753944685
0.3835,0.948201009730134,1.21224575746139
0.38575,0.944518318851168,1.21009405652622
0.388,0.940835937049461,1.20794243397902
0.39025,0.937153862935847,1.20579088720122
0.3925,0.933472095162474,1.20363941361727
0.39475,0.929790632422075,1.20148801069405
0.397,0.926109473447262,1.1993366759402
0.39925,0.922428617009822,1.19718540690547
0.4015,0.918748061920029,1.1950342011801
0.40375,0.91506780702597,1.19288305639422
0.406,0.911387851212878,1.19073197021719
0.40825,0.907708193402478,1.18858094035701
0.4105,0.904028832552346,1.18642996455974
0.41275,0.900349767655273,1.18427904060886
0.415,0.896670997738651,1.1821281663247
0.41725,0.892992521863854,1.17997733956389
0.4195,0.889314339125648,1.17782655821873
0.42175,0.885636448651594,1.17567582021666
0.424,0.881958849601473,1.17352512351972
0.42625,0.878281541166716,1.17137446612393
0.4285,0.874604522569846,1.1692238460588
0.43075,0.870927793063928,1.16707326138679
0.433,0.86725135193203,1.16492271020275
0.43525,0.863575198486694,1.16277219063343
0.4375,0.859899332069414,1.16062170083693
0.43975,0.856223752050126,1.15847123900222
0.442,0.852548457826704,1.15632080334861
0.44425,0.848873448824467,1.15417039212527
0.4465,0.845198724495697,1.15202000361076
0.44875,0.84152428431916,1.14986963611249
0.451,0.837850127799636,1.14771928796632
0.45325,0.834176254467465,1.14556895753602
0.4555,0.830502663878091,1.14341864321286
0.45775,0.826829355611622,1.1412683434151
0.46,0.82315632927239,1.13911805658762
0.46225,0.819483584488527,1.13696778120138
0.4645,0.81581112091154,1.13481751575307
0.46675,0.812138938215904,1.13266725876461
0.469,0.80846703609865,1.13051700878277
0.47125,0.804795414278967,1.12836676437873
0.4735,0.801124072497814,1.12621652414767
0.47575,0.797453010517529,1.12406628670836
0.478,0.793782228121456,1.12191605070277
0.48025,0.790111725113566,1.11976581479564
0.4825,0.7864415013181,1.11761557767414
0.48475,0.782771556579201,1.11546533804745
0.487,0.779101890760565,1.11331509464637
0.48925,0.775432503745094,1.11116484622297
0.4915,0.771763395434553,1.10901459155023
0.49375,0.768094565749232,1.10686432942161
0.496,0.764426014627622,1.10471405865079
0.49825,0.760757742026085,1.10256377807122
0.5005,0.757089747918536,1.10041348653583
0.50275,0.753422032296129,1.09826318291665
0.505,0.74975459516695,1.09611286610451
0.50725,0.74608743655571,1.09396253500865
0.5095,0.742420556503449,1.09181218855643
0.51175,0.73875395506724,1.08966182569299
0.514,0.735087632319901,1.08751144538091
0.51625,0.73142158834971,1.08536104659993
0.5185,0.727755823260124,1.08321062834659
0.52075,0.724090337169504,1.08106018963397
0.523,0.720425130210843,1.07890972949132
0.52525,0.716760202531502,1.07675924696382
0.5275,0.713095554292941,1.07460874111224
0.52975,0.709431185670465,1.07245821101268
0.532,0.705767096852967,1.07030765575623
0.53425,0.702103288042678,1.06815707444874
0.5365,0.698439759454918,1.06600646621049
0.53875,0.694776511317853,1.06385583017593
0.541,0.691113543872255,1.06170516549342
0.54325,0.687450857371267,1.05955447132492
0.5455,0.683788452080167,1.05740374684575
0.54775,0.680126328276141,1.0552529912443
0.55,0.676464486248054,1.0531022037218
0.55225,0.672802926296229,1.05095138349202
0.5545,0.669141648732227,1.04880052978106
0.55675,0.66548065387863,1.04664964182704
0.559,0.661819942068823,1.04449871887989
0.56125,0.658159513646789,1.0423477602011
0.5635,0.654499368966899,1.04019676506347
0.56575,0.650839508393704,1.03804573275085
0.568,0.647179932301735,1.03589466255792
0.57025,0.643520641075305,1.03374355378996
0.5725,0.639861635108305,1.03159240576259
0.57475,0.636202914804018,1.02944121780158
0.577,0.632544480574919,1.02728998924257
0.57925,0.62888633284249,1.02513871943089
0.5815,0.625228472037031,1.0229874077213
0.58375,0.621570898597477,1.02083605347782
0.586,0.617913612971211,1.01868465607345
0.58825,0.614256615613887,1.01653321488998
0.5905,0.610599906989249,1.01438172931781
0.59275,0.606943487568958,1.01223019875569
0.595,0.603287357832416,1.01007862261053
0.59725,0.599631518266593,1.00792700029718
0.5995,0.595975969365857,1.00577533123828
0.60175,0.592320711631807,1.00362361486396
0.604,0.588665745573105,1.00147185061175
0.60625,0.585011071705315,0.9993200379263
0.6085,0.581356690550734,0.997168176259208
0.61075,0.577702602638235,0.995016265068841
0.613,0.57404880850311,0.99286430382013
0.61525,0.570395308686906,0.990712291984378
0.6175,0.566742103737274,0.988560229039079
0.61975,0.563089194207813,0.986408114467727
0.622,0.559436580657915,0.98425594775963
0.62425,0.555784263652619,0.982103728409733
0.6265,0.552132243762455,0.979951455918431
0.62875,0.548480521563298,0.977799129791395
0.631,0.544829097636224,0.975646749539391
0.63325,0.541177972567358,0.973494314678107
0.6355,0.537527146947735,0.971341824727974
0.63775,0.533876621373154,0.969189279214002
0.64,0.530226396444038,0.967036677665601
0.64225,0.526576472765292,0.964884019616416
0.6445,0.522926850946165,0.962731304604159
0.64675,0.519277531600109,0.960578532170444
0.649,0.515628515344648,0.958425701860618
0.65125,0.511979802801234,0.956272813223605
0.6535,0.50833139459512,0.954119865811738
0.65575,0.50468329135522,0.951966859180602
0.658,0.50103549371398,0.949813792888876
0.66025,0.497388002307246,0.947660666498176
0.6625,0.493740817774133,0.945507479572895
0.66475,0.490093940756893,0.943354231680054
0.667,0.486447371900791,0.941200922389147
0.66925,0.482801111853973,0.939047551271987
0.6715,0.47915516126734,0.936894117902561
0.67375,0.475509520794424,0.934740621856875
0.676,0.471864191091261,0.932587062712809
0.67825,0.468219172816266,0.930433440049971
0.6805,0.46457446663011,0.928279753449551
0.68275,0.460930073195601,0.926126002494178
0.685,0.457285993177553,0.923972186767774
0.68725,0.453642227242676,0.921818305855417
0.6895,0.449998776059445,0.919664359343198
0.69175,0.446355640297988,0.917510346818079
0.694,0.442712820629964,0.915356267867763
0.69625,0.439070317728441,0.913202122080548
0.6985,0.435428132267786,0.911047909045197
0.70075,0.431786264923541,0.908893628350802
0.703,0.428144716372309,0.906739279586648
0.70525,0.424503487291639,0.904584862342085
0.7075,0.420862578359908,0.902430376206392
0.70975,0.41722199025621,0.900275820768651
0.712,0.41358172366024,0.898121195617614
0.71425,0.409941779252176,0.895966500341576
0.7165,0.406302157712576,0.893811734528249
0.71875,0.402662859722256,0.891656897764635
0.721,0.399023885962181,0.889501989636901
0.72325,0.395385237113355,0.887347009730251
0.7255,0.39174691385671,0.885191957628812
0.72775,0.38810891687299,0.883036832915502
0.73,0.384471246842649,0.880881635171914
0.73225,0.380833904445736,0.878726363978195
0.7345,0.377196890361785,0.876571018912925
0.73675,0.37356020526971,0.874415599553001
0.739,0.369923849847694,0.872260105473518
0.74125,0.366287824773081,0.870104536247653
0.7435,0.362652130722268,0.867948891446548
0.74575,0.3590167683706,0.865793170639196
0.748,0.35538173839226,0.863637373392331
0.75025,0.351747041460165,0.861481499270306
0.7525,0.348112678245855,0.859325547834992
0.75475,0.344478649419396,0.857169518645657
0.757,0.340844955649265,0.855013411258861
0.75925,0.33721159760225,0.852857225228347
0.7615,0.333578575943343,0.850700960104928
0.76375,0.329945891335637,0.848544615436384
0.766,0.32631354444022,0.846388190767351
0.76825,0.322681535916072,0.84423168563922
0.7705,0.31904986641996,0.842075099590024
0.77275,0.315418536606336,0.83991843215434
0.775,0.311787547127232,0.837761682863184
0.77725,0.308156898632159,0.835604851243906
0.7795,0.304526591768003,0.83344793682009
0.78175,0.30089662717892,0.83129093911145
0.784,0.297267005506241,0.829133857633733
0.78625,0.293637727388361,0.826976691898618
0.7885,0.290008793460644,0.824819441413614
0.79075,0.286380204355316,0.822662105681967
0.793,0.282751960701368,0.820504684202557
0.79525,0.279124063124455,0.818347176469807
0.7975,0.275496512246788,0.816189581973582
0.79975,0.271869308687043,0.814031900199097
0.802,0.268242453060253,0.811874130626821
0.80425,0.264615945977711,0.809716272732385
0.8065,0.260989788046867,0.807558325986484
0.80875,0.257363979871232,0.805400289854794
0.811,0.253738522050275,0.803242163797869
0.81325,0.250113415179325,0.801083947271062
0.8155,0.246488659849467,0.798925639724423
0.81775,0.242864256647448,0.796767240602621
0.82,0.239240206155577,0.794608749344845
0.82225,0.235616508951623,0.792450165384725
0.8245,0.231993165608716,0.790291488150238
0.82675,0.228370176695252,0.788132717063624
0.829,0.22474754277479,0.7859738515413
0.83125,0.221125264405957,0.783814890993777
0.8335,0.217503342142345,0.78165583482557
0.83575,0.213881776532418,0.77949668243512
0.838,0.210260568119408,0.777337433214704
0.84025,0.206639717441225,0.775178086550363
0.8425,0.203019225030348,0.773018641821807
0.84475,0.199399091413738,0.770859098402345
0.847,0.195779317112732,0.768699455658797
0.84925,0.192159902642951,0.76653971295142
0.8515,0.188540848514199,0.764379869633824
0.85375,0.184922155230366,0.762219925052895
0.856,0.181303823289334,0.760059878548718
0.85825,0.177685853182875,0.757899729454499
0.8605,0.174068245396556,0.755739477096488
0.86275,0.170451000409642,0.753579120793903
0.865,0.166834118695,0.751418659858856
0.86725,0.163217600719001,0.749258093596276
0.8695,0.159601446941423,0.747097421303839
0.87175,0.155985657815354,0.744936642271887
0.874,0.152370233787096,0.742775755783363
0.87625,0.148755175296071,0.740614761113736
0.8785,0.14514048277472,0.738453657530926
0.88075,0.141526156648409,0.736292444295238
0.883,0.137912197335334,0.73413112065929
0.88525,0.134298605246422,0.731969685867941
0.8875,0.130685380785237,0.729808139158225
0.88975,0.127072524347883,0.727646479759279
0.892,0.123460036322909,0.72548470689228
0.89425,0.119847917091212,0.723322819770371
0.8965,0.116236167025942,0.721160817598603
0.89875,0.112624786492406,0.718998699573858
0.901,0.109013775847973,0.716836464884793
0.90325,0.105403135441978,0.71467411271177
0.9055,0.101792865615625,0.712511642226791
0.90775,0.0981829667018951,0.71034905259344
0.91,0.0945734390254472,0.708186342966812
0.91225,0.0909642829025257,0.706023512493455
0.9145,0.0873554986408644,0.703860560311309
0.91675,0.083747086539591,0.701697485549639
0.919,0.0801390468891322,0.699534287328981
0.92125,0.0765313799711192,0.697370964761076
0.9235,0.0729240860582921,0.695207516948813
0.92575,0.0693171654144062,0.69304394298617
0.928,0.0657106182941357,0.690880241958155
0.93025,0.0621044449429801,0.688716412940745
0.9325,0.0584986455971696,0.686552455000834
0.93475,0.0548932204835704,0.684388367196172
0.937,0.0512881698195894,0.68222414857531
0.93925,0.0476834938130815,0.680059798177542
0.9415,0.0440791926622538,0.677895315032855
0.94375,0.0404752665555723,0.675730698161869
0.946,0.0368717156716669,0.673565946575785
0.94825,0.0332685401792381,0.67140105927633
0.9505,0.0296657402369628,0.669236035255707
0.95275,0.0260633159934001,0.66707087349654
0.955,0.0224612675868972,0.664905572971822
0.95725,0.0188595951454966,0.662740132644864
0.9595,0.0152582987868415,0.660574551469245
0.96175,0.0116573786180825,0.65840882838876
0.964,0.00805683473578373,0.656242962337371
0.96625,0.00445666722582988,0.654076952239158
0.9685,0.000856876163332804,0.65191079700827
0.97075,-0.00274253838746218,0.649744495548877
0.973,-0.00634157637326977,0.647578046755122
0.97525,-0.00994023775185665,0.645411449511072
0.9775,-0.0135385224921359,0.643244702690676
0.97975,-0.0171364305742588,0.641077805157714
0.982,-0.0207339619897092,0.638910755765753
0.98425,-0.0243311167413944,0.636743553358105
0.9865,-0.0279278948437394,0.634576196767777
0.98875,-0.0315242963227788,0.632408684817431
0.991,-0.0351203212162499,0.630241016319339
0.99325,-0.0387159695736845,0.628073190075341
0.9955,-0.0423112414565014,0.6259052048768
0.99775,-0.0459061369380992,0.623737059504562
1,-0.0495006561039472,0.621568752728916
