"Freq [GHz]","ang_rad(S(waveport1,antenna)) [rad]","ang_rad(S(waveport2,antenna)) [rad]"
0.001,-1.57187422868698,1.5697219318643
0.0084975,-1.57995590980141,1.56166677615538
0.015995,-1.58803757118433,1.55361160598532
0.0234925,-1.59611920738752,1.54555644812862
0.03099,-1.60420080681674,1.53750130811994
0.0384875,-1.61228235846549,1.52944619094076
0.045985,-1.62036385144602,1.52139110145783
0.0534825,-1.62844527512787,1.51333604428666
0.06098,-1.63652661923415,1.50528102369741
0.0684775,-1.64460787391465,1.49722604354341
0.075975,-1.65268902981586,1.4891711071927
0.0834725,-1.6607700781438,1.48111621746664
0.09097,-1.6688510107271,1.47306137657828
0.0984675,-1.67693182008,1.4650065860707
0.105965,-1.68501247795631,1.45695186883386
0.1134625,-1.69309297763175,1.44889722517592
0.12096,-1.70117331234799,1.44084265581311
0.1284575,-1.70925347140275,1.43278816557968
0.135955,-1.71733344412757,1.42473375929589
0.1434525,-1.72541321989041,1.41667944176707
0.15095,-1.73349278809812,1.40862521778275
0.1584475,-1.74157213819889,1.40057109211582
0.165945,-1.74965125968452,1.39251706952158
0.1734425,-1.7577301420927,1.38446315473697
0.18094,-1.76580877500924,1.37640935247965
0.1884375,-1.77388714807023,1.3683556674472
0.195935,-1.78196525096422,1.36030210431625
0.2034325,-1.79004307343432,1.35224866774167
0.21093,-1.79812060528034,1.34419536235571
0.2184275,-1.80619783636089,1.33614219276718
0.225925,-1.8142747565954,1.32808916356068
0.2334225,-1.82235135596625,1.32003627929569
0.24092,-1.83042762452074,1.31198354450586
0.2484175,-1.83850355237315,1.30393096369813
0.255915,-1.84657912970676,1.29587854135198
0.2634125,-1.85465434677578,1.28782628191861
0.27091,-1.8627291939074,1.27977418982016
0.2784075,-1.87080366150369,1.27172226944893
0.285905,-1.87887774004357,1.26367052516661
0.2934025,-1.8869514200847,1.2556189613035
0.3009,-1.89502469226545,1.24756758215776
0.3083975,-1.90309754730672,1.23951639199461
0.315895,-1.91116997601385,1.23146539504565
0.3233925,-1.91924196927846,1.22341459550807
0.33089,-1.92731351808028,1.21536399754392
0.3383875,-1.935384613489,1.20731360527935
0.345885,-1.94345524666603,1.19926342280397
0.3533825,-1.9515254088663,1.19121345417001
0.36088,-1.95959509144001,1.18316370339171
0.3683775,-1.96766428583442,1.17511417444454
0.375875,-1.97573298359556,1.16706487126449
0.3833725,-1.98380117637001,1.15901579774732
0.39087,-1.99186885590676,1.15096695774768
0.3983675,-1.99993601405945,1.14291835507791
0.405865,-2.00800264279042,1.13486999350484
0.4133625,-2.01606873419274,1.12682187672886
0.42086,-2.0241342798167,1.11877400905826
0.4283575,-2.0321992734415,1.1107263926385
0.435855,-2.04026370620748,1.10267903232093
0.4433525,-2.04832757094831,1.09463193133144
0.45085,-2.05639086030041,1.08658509316193
0.4583475,-2.06445356700577,1.07853852126841
0.465845,-2.07251568392198,1.07049221906175
0.4733425,-2.08057720402504,1.06244618990576
0.48084,-2.08863812041114,1.05440043711618
0.4883375,-2.09669842629819,1.04635496396001
0.495835,-2.10475811502716,1.0383097736549
0.5033325,-2.1128171800635,1.03026486936854
0.51083,-2.12087561499838,1.02222025421816
0.5183275,-2.12893341355002,1.01417593126993
0.525825,-2.13699056956492,1.00613190353847
0.5333225,-2.14504707701907,0.998088173986319
0.54082,-2.15310293001915,0.990044745523428
0.5483175,-2.1611581228037,0.982001621006664
0.555815,-2.16921264974427,0.973958803239319
0.5633125,-2.17726650534649,0.965916294970636
0.57081,-2.18531968425119,0.957874098895338
0.5783075,-2.19337218123544,0.949832217653165
0.585805,-2.20142399121358,0.941790653828435
0.5933025,-2.2094751092382,0.933749409949596
0.6008,-2.21752553050114,0.925708488488797
0.6082975,-2.22557525033441,0.917667891861469
0.615795,-2.23362426421111,0.909627622425918
0.6232925,-2.24167256774628,0.901587682482918
0.63079,-2.24972015669782,0.893548074275327
0.6382875,-2.25776702696724,0.885508799987699
0.645785,-2.2658131746005,0.877469861745921
0.6532825,-2.27385859578877,0.869431261616844
0.66078,-2.28190328686913,0.86139300160794
0.6682775,-2.28994724432533,0.853355083666951
0.675775,-2.2979904647884,0.845317509681567
0.6832725,-2.30603294503733,0.8372802814791
0.69077,-2.31407468199969,0.829243400826172
0.6982675,-2.32211567275217,0.821206869428416
0.705765,-2.33015591452118,0.813170688930183
0.7132625,-2.33819540468334,0.805134860914261
0.72076,-2.34623414076596,0.797099386901603
0.7282575,-2.3542721204475,0.789064268351065
0.735755,-2.36230934155804,0.781029506659158
0.7432525,-2.3703458020796,0.7729951031598
0.75075,-2.37838150014655,0.764961059124092
0.7582475,-2.38641643404592,0.756927375760088
0.765745,-2.39445060221772,0.748894054212592
0.7732425,-2.40248400325517,0.740861095562947
0.78074,-2.41051663590498,0.732828500828852
0.7882375,-2.41854849906749,0.724796270964173
0.795735,-2.4265795917969,0.716764406858775
0.8032325,-2.43460991330137,0.708732909338358
0.81073,-2.44263946294312,0.700701779164307
0.8182275,-2.45066824023855,0.692671017033544
0.825725,-2.45869624485822,0.6846406235784
0.8332225,-2.46672347662688,0.676610599366493
0.84072,-2.47474993552345,0.66858094490061
0.8482175,-2.48277562168097,0.660551660618607
0.855715,-2.49080053538647,0.652522746893315
0.8632125,-2.49882467708089,0.644494204032453
0.87071,-2.5068480473589,0.636466032278557
0.8782075,-2.51487064696871,0.628438231808914
0.885705,-2.52289247681187,0.620410802735506
0.8932025,-2.53091353794296,0.612383745104964
0.9007,-2.53893383156939,0.604357058898534
0.9081975,-2.546953359051,0.596330744032049
0.915695,-2.55497212189973,0.588304800355908
0.9231925,-2.56299012177928,0.580279227655076
0.93069,-2.57100736050461,0.572254025649078
0.9381875,-2.57902384004157,0.564229193992012
0.945685,-2.58703956250636,0.556204732272573
0.9531825,-2.59505453016506,0.548180640014077
0.96068,-2.60306874543304,0.540156916674502
0.9681775,-2.61108221087441,0.532133561646534
0.975675,-2.6190949292014,0.524110574257626
0.9831725,-2.62710690327373,0.516087953770065
0.99067,-2.63511813609791,0.508065699381041
0.9981675,-2.64312863082656,0.500043810222737
1.005665,-2.65113839075764,0.492022285362421
1.0131625,-2.65914741933374,0.484001123802543
1.02066,-2.66715572014121,0.475980324480853
1.0281575,-2.67516329690938,0.467959886270512
1.035655,-2.68317015350967,0.459939807980229
1.0431525,-2.69117629395473,0.451920088354392
1.05065,-2.69918172239749,0.443900726073216
1.0581475,-2.7071864431302,0.435881719752896
1.065645,-2.71519046058349,0.427863067945771
1.0731425,-2.72319377932532,0.419844769140497
1.08064,-2.73119640405997,0.411826821762222
1.0881375,-2.73919833962693,0.403809224172779
1.095635,-2.74719959099985,0.395791974670883
1.1031325,-2.75520016328539,0.387775071492333
1.11063,-2.76320006172203,0.379758512810226
1.1181275,-2.77119929167897,0.371742296735183
1.125625,-2.77919785865484,0.363726421315574
1.1331225,-2.78719576827651,0.355710884537759
1.14062,-2.79519302629781,0.347695684326334
1.1481175,-2.80318963859822,0.339680818544384
1.155615,-2.81118561118161,0.33166628499375
1.1631125,-2.81918095017482,0.323652081415293
1.17061,-2.82717566182636,0.315638205489177
1.1781075,-2.83516975250497,0.307624654835156
1.185605,-2.84316322869824,0.299611427012866
1.1931025,-2.85115609701112,0.291598519522127
1.2006,-2.8591483641645,0.283585929803257
1.2080975,-2.8671400369937,0.275573655237384
1.215595,-2.87513112244695,0.267561693146776
1.2230925,-2.88312162758387,0.259550040795174
1.23059,-2.8911115595739,0.251538695388129
1.2380875,-2.89910092569473,0.243527654073356
1.245585,-2.90708973333069,0.235516913941084
1.2530825,-2.91507798997112,0.227506472024425
1.26058,-2.92306570320877,0.219496325299743
1.2680775,-2.93105288073806,0.211486470687031
1.275575,-2.93903953035349,0.203476905050297
1.2830725,-2.94702565994787,0.195467625197962
1.29057,-2.95501127751061,0.187458627883253
1.2980675,-2.96299639112603,0.179449909804618
1.305565,-2.97098100897152,0.171441467606137
1.3130625,-2.97896513931587,0.163433297877945
1.32056,-2.98694879051736,0.155425397156662
1.3280575,-2.99493197102208,0.147417761925832
1.335555,-3.002914689362,0.139410388616363
1.3430525,-3.01089695415319,0.13140327360698
1.35055,-3.01887877409395,0.123396413224683
1.3580475,-3.02686015796296,0.115389803745214
1.365545,-3.03484111461737,0.107383441393525
1.3730425,-3.04282165299092,0.0993773223442591
1.38054,-3.05080178209202,0.0913714427222387
1.3880375,-3.05878151100187,0.0833657986029552
1.395535,-3.06676084887245,0.0753603860130709
1.4030325,-3.07473980492465,0.0673552009309245
1.41053,-3.08271838844628,0.0593502392870451
1.4180275,-3.0906966087901,0.0513454969646731
1.425525,-3.09867447537186,0.043340969800286
1.4330225,-3.10665199766827,0.0353366535841338
1.44052,-3.11462918521507,0.0273325440607781
1.4480175,-3.12260604760495,0.0193286369296407
1.455515,-3.1305825944856,0.0113249278455566
1.4630125,-3.13855883555765,0.00332141241933474
1.47051,3.13665052660696,-0.00468191378167451
1.4780075,3.12867486784862,-0.0126850552330058
1.485505,3.12069948549969,-0.0206880164524983
1.4930025,3.11272436966814,-0.0286908019997092
1.5005,3.10474951041921,-0.0366934164753195
1.5079975,3.09677489777751,-0.0446958645205352
1.515495,3.08880052172906,-0.0526981508164799
1.5229925,3.08082637222336,-0.0607002800835823
1.53049,3.07285243917549,-0.0687022570809574
1.5379875,3.06487871246818,-0.0767040866057804
1.545485,3.0569051819539,-0.0847057734926549
1.5529825,3.04893183745697,-0.0927073226129742
1.56048,3.04095866877563,-0.100708738874277
1.5679775,3.03298566568412,-0.108710027219595
1.575475,3.02501281793486,-0.116711192626799
1.5829725,3.01704011526047,-0.12471224010793
1.59047,3.00906754737589,-0.132713174708535
1.5979675,3.00109510398052,-0.140714001506986
1.605465,2.99312277476032,-0.148714725613801
1.6129625,2.98515054938987,-0.156715352170952
1.62046,2.97717841753454,-0.164715886351171
1.6279575,2.96920636885257,-0.172716333357251
1.635455,2.96123439299717,-0.180716698421331
1.6429525,2.95326247961866,-0.188716986804184
1.65045,2.94529061836657,-0.19671720379448
1.6579475,2.93731879889177,-0.204717354708046
1.665445,2.92934701084865,-0.212717444887068
1.6729425,2.92137524389741,-0.220717479699145
1.68044,2.91340348770712,-0.2287174645356
1.6879375,2.90543173196743,-0.236717404801112
1.695435,2.89745996623087,-0.244717306072786
1.7029325,2.88948818047045,-0.252717173543842
1.71043,2.88151636421311,-0.260717012891504
1.7179275,2.87354450723341,-0.268716829584641
1.725425,2.86557259929116,-0.276716629147414
1.7329225,2.85760063016618,-0.284716417125831
1.74042,2.84962858966211,-0.292716199085212
1.7479175,2.84165646760879,-0.300715980609069
1.755415,2.83368425386445,-0.308715767298217
1.7629125,2.82571193831775,-0.316715564769938
1.77041,2.81773951088988,-0.324715378657155
1.7779075,2.80976696153661,-0.332715214607604
1.785405,2.80179428025031,-0.340715078283019
1.7929025,2.793821457062,-0.348714975358294
1.8004,2.78584848204339,-0.356714911520649
1.8078975,2.77787534530888,-0.364714892468797
1.815395,2.76990203701757,-0.372714923912093
1.8228925,2.76192854737528,-0.380715011569691
1.83039,2.75395486663654,-0.388715161169683
1.8378875,2.74598098510656,-0.396715378448246
1.845385,2.73800689314323,-0.404715669148773
1.8528825,2.73003258115909,-0.412716039021006
1.86038,2.72205803962326,-0.420716493820161
1.8678775,2.71408325906342,-0.428717039306047
1.875375,2.70610823006775,-0.436717681242186
1.8828725,2.69813294328683,-0.444718425394918
1.89037,2.69015738943559,-0.452719277532511
1.8978675,2.6821815592952,-0.460720243424265
1.905365,2.67420544371496,-0.468721328839601
1.9128625,2.66622903361421,-0.476722539547162
1.92036,2.65825231998418,-0.484723881313894
1.9278575,2.65027529388986,-0.492725359904136
1.935355,2.64229794647181,-0.500726981078692
1.9428525,2.63432026894807,-0.508728750593911
1.95035,2.6263422526159,-0.516730674200756
1.9578475,2.61836388885363,-0.52473275764387
1.965345,2.61038516912244,-0.53273500666064
1.9728425,2.60240608496813,-0.540737426980253
1.98034,2.59442662802291,-0.548740024322753
1.9878375,2.58644679000708,-0.556742804398091
1.995335,2.57846656273085,-0.564745772905172
2.0028325,2.57048593809598,-0.572748935530898
2.01033,2.5625049080975,-0.580752297949209
2.0178275,2.5545234648254,-0.588755865820123
2.025325,2.5465416004663,-0.596759644788759
2.0328225,2.53855930730506,-0.604763640484381
2.04032,2.53057657772643,-0.612767858519415
2.0478175,2.52259340421665,-0.620772304488474
2.055315,2.51460977936506,-0.628776983967387
2.0628125,2.50662569586564,-0.636781902512207
2.07031,2.49864114651855,-0.644787065658235
2.0778075,2.4906561242317,-0.652792478919029
2.085305,2.48267062202224,-0.660798147785416
2.0928025,2.47468463301802,-0.6688040777245
2.1003,2.4666981504591,-0.67681027417867
2.1077975,2.45871116769915,-0.684816742564605
2.115295,2.45072367820689,-0.692823488272273
2.1227925,2.4427356755675,-0.700830516663936
2.13029,2.43474715348398,-0.708837833073145
2.1377875,2.42675810577848,-0.716845442803744
2.145285,2.41876852639367,-0.724853351128859
2.1527825,2.410778409394,-0.732861563289899
2.16028,2.40278774896699,-0.740870084495549
2.1677775,2.39479653942451,-0.748878919920762
2.175275,2.38680477520394,-0.756888074705753
2.1827725,2.37881245086943,-0.764897553954989
2.19027,2.37081956111303,-0.772907362736189
2.1977675,2.36282610075586,-0.780917506079301
2.205265,2.35483206474919,-0.788927988975511
2.2127625,2.34683744817559,-0.796938816376221
2.22026,2.3388422462499,-0.804949993192048
2.2277575,2.33084645432035,-0.812961524291817
2.235255,2.32285006786949,-0.82097341450155
2.2427525,2.31485308251519,-0.828985668603465
2.25025,2.30685549401159,-0.836998291334969
2.2577475,2.29885729824997,-0.845011287387658
2.265245,2.29085849125966,-0.853024661406309
2.2727425,2.28285906920888,-0.861038417987887
2.28024,2.27485902840552,-0.869052561680542
2.2877375,2.26685836529797,-0.877067096982616
2.295235,2.25885707647584,-0.885082028341647
2.3027325,2.25085515867064,-0.893097360153381
2.31023,2.24285260875654,-0.90111309676078
2.3177275,2.23484942375091,-0.909129242453041
2.325225,2.22684560081503,-0.917145801464609
2.3327225,2.21884113725459,-0.925162777974203
2.34022,2.21083603052027,-0.933180176103841
2.3477175,2.20283027820821,-0.941197999917862
2.355215,2.19482387806049,-0.949216253421971
2.3627125,2.18681682796558,-0.957234940562268
2.37021,2.17880912595869,-0.965254065224293
2.3777075,2.17080077022214,-0.973273631232074
2.385205,2.16279175908568,-0.981293642347181
2.3927025,2.15478209102677,-0.989314102267779
2.4002,2.14677176467078,-0.9973350146277
2.4076975,2.13876077879124,-1.0053563829955
2.415195,2.13074913230996,-1.01337821087356
2.4226925,2.12273682429715,-1.02140050169714
2.43019,2.11472385397151,-1.02942325883348
2.4376875,2.10671022070025,-1.0374464855809
2.445185,2.09869592399911,-1.0454701851679
2.4526825,2.09068096353228,-1.05349436075228
2.46018,2.08266533911233,-1.06151901542026
2.4676775,2.07464905070005,-1.06954415218559
2.475175,2.06663209840434,-1.0775697739887
2.4826725,2.0586144824819,-1.08559588369585
2.49017,2.05059620333705,-1.09362248409827
2.4976675,2.04257726152139,-1.10164957791135
2.505165,2.03455765773343,-1.1096771677738
2.5126625,2.02653739281824,-1.1177052562468
2.52016,2.01851646776697,-1.12573384581328
2.5276575,2.01049488371642,-1.13376293887702
2.535155,2.00247264194843,-1.14179253776197
2.5426525,1.99444974388941,-1.14982264471141
2.55015,1.98642619110962,-1.15785326188719
2.5576475,1.97840198532257,-1.16588439136904
2.565145,1.97037712838428,-1.17391603515378
2.5726425,1.96235162229253,-1.1819481951546
2.58014,1.95432546918606,-1.18998087320039
2.5876375,1.9462986713437,-1.19801407103502
2.595135,1.9382712311835,-1.20604779031665
2.6026325,1.93024315126173,-1.21408203261707
2.61013,1.92221443427197,-1.22211679942106
2.6176275,1.91418508304397,-1.23015209212573
2.625125,1.90615510054264,-1.23818791203992
2.6326225,1.89812448986687,-1.24622426038357
2.64012,1.89009325424835,-1.25426113828717
2.6476175,1.88206139705035,-1.26229854679111
2.655115,1.87402892176642,-1.27033648684522
2.6626125,1.86599583201905,-1.27837495930814
2.67011,1.85796213155833,-1.28641396494686
2.6776075,1.84992782426046,-1.29445350443619
2.685105,1.84189291412634,-1.30249357835825
2.6926025,1.83385740527997,-1.31053418720207
2.7001,1.82582130196694,-1.31857533136306
2.7075975,1.81778460855275,-1.32661701114265
2.715095,1.80974732952117,-1.33465922674781
2.7225925,1.8017094694725,-1.34270197829075
2.73009,1.79367103312178,-1.35074526578845
2.7375875,1.78563202529701,-1.35878908916241
2.745085,1.77759245093724,-1.36683344823825
2.7525825,1.76955231509066,-1.37487834274544
2.76008,1.76151162291262,-1.382923772317
2.7675775,1.75347037966363,-1.39096973648928
2.775075,1.74542859070726,-1.39901623470166
2.7825725,1.73738626150804,-1.4070632662964
2.79007,1.7293433976293,-1.4151108305184
2.7975675,1.72130000473093,-1.42315892651506
2.805065,1.71325608856712,-1.43120755333615
2.8125625,1.70521165498404,-1.43925670993366
2.82006,1.6971667099175,-1.44730639516175
2.8275575,1.68912125939052,-1.45535660777664
2.835055,1.68107530951084,-1.46340734643662
2.8425525,1.67302886646847,-1.471458609702
2.85005,1.66498193653308,-1.47951039603515
2.8575475,1.65693452605142,-1.48756270380052
2.865045,1.64888664144466,-1.49561553126474
2.8725425,1.64083828920567,-1.50366887659667
2.88004,1.63278947589632,-1.5117227378676
2.8875375,1.62474020814461,-1.51977711305134
2.895035,1.61669049264189,-1.52783200002443
2.9025325,1.60864033613995,-1.53588739656636
2.91003,1.60058974544808,-1.54394330035982
2.9175275,1.59253872743006,-1.55199970899096
2.925025,1.58448728900119,-1.5600566199497
2.9325225,1.57643543712516,-1.56811403063009
2.94002,1.56838317881096,-1.57617193833065
2.9475175,1.5603305211097,-1.58423034025479
2.955015,1.55227747111143,-1.59228923351125
2.9625125,1.54422403594183,-1.60034861511455
2.97001,1.53617022275897,-1.6084084819855
2.9775075,1.52811603874991,-1.61646883095175
2.985005,1.52006149112738,-1.62452965874835
2.9925025,1.51200658712629,-1.63259096201832
3,1.50395133400031,-1.64065273731336
