"Freq [GHz]","Antenna to Waveport 2 [rad]","Antenna to Waveport 1 [rad]"
0.001,1.93053145251696,-1.93298495540122
0.0084975,2.82830465169102,-2.85048813635712
0.015995,2.9564837330938,-2.99843840851574
0.0234925,2.99845427147086,-3.06014066361548
0.03099,3.01560474323995,-3.09701059550022
0.0384875,3.02229745725367,-3.12341733438743
0.045985,3.02361589485692,3.13873841023142
0.0534825,3.02181057075559,3.12083437206717
0.06098,3.01803007290984,3.10490668643045
0.0684775,3.01292163228901,3.09030779096194
0.075975,3.00687765821998,3.07664507025964
0.0834725,3.00014986759692,3.06366666754852
0.09097,2.99290713266988,3.05120360625653
0.0984675,2.98526696108227,3.03913829288611
0.105965,2.97731356346697,3.02738637026603
0.1134625,2.96910911411107,3.01588588184953
0.12096,2.96070032758001,3.0045901442615
0.1284575,2.9521230017571,2.99346335609804
0.135955,2.94340504552897,2.98247760976002
0.1434525,2.93456853886636,2.97161083015518
0.15095,2.92563117945671,2.9608453271997
0.1584475,2.91660731891155,2.95016675898422
0.165945,2.90750871825393,2.93956337582535
0.1734425,2.89834510757208,2.92902546026839
0.18094,2.88912460660616,2.91854490624032
0.1884375,2.87985404497877,2.90811489862054
0.195935,2.87053920893573,2.89772966634619
0.2034325,2.8611850335476,2.88738429009027
0.21093,2.85179575393605,2.87707455094061
0.2184275,2.84237502536611,2.86679681023202
0.225925,2.83292601943423,2.85654791329787
0.2334225,2.82345150172468,2.84632511176478
0.24092,2.81395389496995,2.83612600035254
0.2484175,2.8044353307768,2.82594846511563
0.255915,2.79489769226206,2.81579064078067
0.2634125,2.78534264940893,2.80565087536797
0.27091,2.7757716885537,2.79552770068664
0.2784075,2.76618613710891,2.78541980759594
0.285905,2.75658718439731,2.77532602515855
0.2934025,2.7469758992922,2.76524530298947
0.3009,2.73735324522089,2.75517669624346
0.3083975,2.72772009298008,2.74511935279191
0.315895,2.71807723172651,2.73507250222572
0.3233925,2.70842537843907,2.7250354463876
0.33089,2.6987651860947,2.7150075511915
0.3383875,2.68909725075745,2.70498823952941
0.345885,2.67942211774587,2.69497698510069
0.3533825,2.6697402870152,2.6849733070268
0.36088,2.66005221786887,2.6749767651374
0.3683775,2.65035833309465,2.66498695583198
0.375875,2.64065902260587,2.65500350843684
0.3833725,2.63095464665547,2.64502608198956
0.39087,2.62124553868006,2.63505436239352
0.3983675,2.61153200782303,2.62508805989377
0.405865,2.60181434117794,2.61512690683275
0.4133625,2.5920928057878,2.6051706556502
0.42086,2.58236765043081,2.59521907709703
0.4283575,2.57263910721858,2.58527195863673
0.435855,2.56290739302956,2.5753291030121
0.4433525,2.55317271079738,2.56539032695759
0.45085,2.54343525067147,2.55545546004104
0.4583475,2.53369519106595,2.54552434362129
0.465845,2.523952699615,2.53559682991426
0.4733425,2.51420793407598,2.52567278118628
0.48084,2.50446104354528,2.51575206942015
0.4883375,2.49471215953066,2.50583456598049
0.495835,2.48496143272272,2.49592017710583
0.5033325,2.47520897390036,2.48600878364912
0.51083,2.46545490452753,2.47610029061205
0.5183275,2.45569933683441,2.46619460625608
0.525825,2.44594237711941,2.45629164451725
0.5333225,2.43618412627523,2.4463913247199
0.54082,2.42642468018208,2.4364935712252
0.5483175,2.41666413005528,2.42659831309503
0.555815,2.4069025627614,2.41670548377986
0.5633125,2.39714006110819,2.40681502083053
0.57081,2.38737670411127,2.3969268656324
0.5783075,2.37761256723986,2.38704096315993
0.585805,2.36784772264369,2.37715726175017
0.5933025,2.3580822393625,2.36727571289326
0.6008,2.34831618351994,2.35739627103864
0.6082975,2.33854961850309,2.3475188934156
0.615795,2.32878260512884,2.33764353986686
0.6232925,2.31901520179825,2.32777017269424
0.63079,2.30924746463991,2.3178987565152
0.6382875,2.29947944764315,2.30802925812963
0.645785,2.28971120278202,2.29816164639577
0.6532825,2.27994278013067,2.28829589211474
0.66078,2.2701742279709,2.27843196792286
0.6682775,2.26040559289242,2.26856984819129
0.675775,2.25063691988646,2.25870950893221
0.6832725,2.2408682524332,2.24885092771128
0.69077,2.23109963258349,2.23899408356568
0.6982675,2.22133110103528,2.22913895692749
0.705765,2.21156269720517,2.21928552955186
0.7132625,2.20179445929547,2.20943378444975
0.72076,2.19202642435699,2.19958370582479
0.7282575,2.18225862834798,2.18973527901406
0.735755,2.17249110618948,2.17988849043243
0.7432525,2.16272389181723,2.17004332752023
0.75075,2.1529570182305,2.16019977869411
0.7582475,2.143190517538,2.15035783330066
0.765745,2.13342442100106,2.14051748157282
0.7732425,2.12365875907431,2.13067871458874
0.78074,2.11389356144395,2.12084152423302
0.7882375,2.10412885706385,2.1110059031601
0.795735,2.09436467418956,2.10117184475967
0.8032325,2.08460104041045,2.09133934312401
0.81073,2.07483798267998,2.0815083930171
0.8182275,2.0650755273443,2.07167898984539
0.825725,2.05531370016929,2.06185112963009
0.8332225,2.04555252636611,2.05202480898097
0.84072,2.03579203061532,2.04220002507148
0.8482175,2.02603223708979,2.03237677561517
0.855715,2.01627316947622,2.0225550588433
0.8632125,2.0065148509957,2.01273487348355
0.87071,1.99675730442303,2.00291621873984
0.8782075,1.98700055210512,1.99309909427308
0.885705,1.97724461597836,1.9832835001829
0.8932025,1.96748951758513,1.97346943699022
0.9007,1.95773527808944,1.96365690562063
0.9081975,1.94798191829176,1.95384590738862
0.915695,1.93822945864313,1.94403644398245
0.9231925,1.92847791925849,1.93422851744976
0.93069,1.91872731992935,1.9244221301838
0.9381875,1.90897768013591,1.91461728491029
0.945685,1.89922901905841,1.90481398467483
0.9531825,1.88948135558808,1.89501223283086
0.96068,1.8797347083374,1.88521203302817
0.9681775,1.86998909564996,1.87541338920183
0.975675,1.86024453560979,1.8656163055616
0.9831725,1.8505010460502,1.85582078658179
0.99067,1.84075864456222,1.84602683699152
0.9981675,1.83101734850265,1.83623446176534
1.005665,1.82127717500165,1.82644366611422
1.0131625,1.81153814096998,1.81665445547691
1.02066,1.80180026310597,1.80686683551163
1.0281575,1.79206355790199,1.79708081208801
1.035655,1.78232804165074,1.78729639127936
1.0431525,1.77259373045119,1.77751357935524
1.05065,1.7628606402142,1.76773238277427
1.0581475,1.7531287866679,1.75795280817715
1.065645,1.74339818536281,1.74817486237997
1.0731425,1.73366885167667,1.73839855236773
1.08064,1.72394080081908,1.72862388528808
1.0881375,1.71421404783589,1.7188508684452
1.095635,1.70448860761336,1.70907950929393
1.1031325,1.69476449488214,1.69930981543412
1.11063,1.68504172422104,1.68954179460501
1.1181275,1.6753203100606,1.67977545467995
1.125625,1.66560026668651,1.67001080366112
1.1331225,1.65588160824283,1.66024784967449
1.14062,1.64616434873507,1.65048660096493
1.1481175,1.63644850203309,1.64072706589134
1.155615,1.62673408187385,1.63096925292207
1.1631125,1.61702110186408,1.62121317063031
1.17061,1.60730957548268,1.6114588276897
1.1781075,1.59759951608315,1.60170623287
1.185605,1.58789093689579,1.59195539503287
1.1931025,1.57818385102979,1.58220632312776
1.2006,1.56847827147525,1.57245902618791
1.2080975,1.55877421110504,1.56271351332636
1.215595,1.54907168267662,1.55296979373219
1.2230925,1.53937069883367,1.5432278766667
1.23059,1.52967127210772,1.53348777145973
1.2380875,1.51997341491961,1.5237494875061
1.245585,1.51027713958092,1.51401303426203
1.2530825,1.50058245829528,1.50427842124169
1.26058,1.49088938315963,1.49454565801381
1.2680775,1.48119792616537,1.48481475419833
1.275575,1.47150809919944,1.47508571946313
1.2830725,1.46181991404538,1.46535856352083
1.29057,1.45213338238426,1.45563329612559
1.2980675,1.44244851579559,1.44590992707004
1.305565,1.43276532575813,1.43618846618222
1.3130625,1.42308382365068,1.42646892332253
1.32056,1.41340402075279,1.41675130838084
1.3280575,1.40372592824543,1.40703563127352
1.335555,1.39404955721161,1.39732190194059
1.3430525,1.38437491863691,1.38761013034291
1.35055,1.37470202341004,1.37790032645936
1.3580475,1.3650308823233,1.36819250028415
1.365545,1.35536150607302,1.35848666182404
1.3730425,1.34569390525992,1.34878282109573
1.38054,1.33602809038949,1.33908098812321
1.3880375,1.32636407187234,1.32938117293514
1.395535,1.31670186002442,1.31968338556232
1.4030325,1.30704146506731,1.30998763603513
1.41053,1.29738289712842,1.30029393438107
1.4180275,1.28772616624123,1.29060229062224
1.425525,1.27807128234538,1.28091271477294
1.4330225,1.26841825528686,1.27122521683727
1.44052,1.2587670948181,1.26153980680672
1.4480175,1.24911781059809,1.25185649465784
1.455515,1.23947041219239,1.24217529034994
1.4630125,1.22982490907323,1.23249620382276
1.47051,1.22018131061949,1.22281924499423
1.4780075,1.21053962611678,1.21314442375822
1.485505,1.20089986475733,1.20347174998234
1.4930025,1.19126203564007,1.19380123350574
1.5005,1.18162614777052,1.18413288413695
1.5079975,1.17199221006076,1.17446671165176
1.515495,1.16236023132936,1.16480272579111
1.5229925,1.15273022030133,1.15514093625897
1.53049,1.14310218560799,1.14548135272032
1.5379875,1.1334761357869,1.1358239847991
1.545485,1.12385207928176,1.12616884207619
1.5529825,1.11423002444228,1.11651593408742
1.56048,1.10460997952404,1.10686527032164
1.5679775,1.09499195268842,1.09721686021873
1.575475,1.08537595200242,1.08757071316771
1.5829725,1.07576198543853,1.07792683850486
1.59047,1.06615006087463,1.06828524551182
1.5979675,1.05654018609377,1.05864594341377
1.605465,1.0469323687841,1.04900894137759
1.6129625,1.03732661653866,1.03937424851009
1.62046,1.02772293685528,1.0297418738562
1.6279575,1.01812133713641,1.02011182639724
1.635455,1.00852182468894,1.01048411504919
1.6429525,0.998924406724108,1.00085874866099
1.65045,0.9893290903573,0.991235736012852
1.6579475,0.97973588260793,0.981615085814614
1.665445,0.970144790399285,0.971996806704102
1.6729425,0.960555820558387,0.962380907245526
1.68044,0.950968979815847,0.952767395927894
1.6879375,0.941384274805732,0.943156281163455
1.695435,0.931801712065432,0.933547571286166
1.7029325,0.922221298035529,0.923941274550175
1.71043,0.912643039059676,0.914337399128345
1.7179275,0.903066941384473,0.904735953110784
1.725425,0.893493011159357,0.895136944503413
1.7329225,0.88392125443649,0.885540381226557
1.74042,0.874351677170655,0.875946271113553
1.7479175,0.864784285219163,0.866354621909392
1.755415,0.855219084341756,0.856765441269382
1.7629125,0.845656080200528,0.847178736757839
1.77041,0.836095278359842,0.8375945158468
1.7779075,0.826536684286263,0.828012785914766
1.785405,0.816980303348489,0.818433554245464
1.7929025,0.807426140817297,0.808856828026643
1.8004,0.797874201865493,0.799282614348892
1.8078975,0.788324491567866,0.78971092020448
1.815395,0.778777014901157,0.780141752486232
1.8228925,0.76923177674403,0.770575117986421
1.83039,0.759688781877048,0.761011023395694
1.8378875,0.750148034982667,0.751449475302022
1.845385,0.740609540645224,0.741890480189673
1.8528825,0.731073303350946,0.732334044438217
1.86038,0.721539327487957,0.722780174321557
1.8678775,0.712007617346293,0.713228876006982
1.875375,0.702478177117935,0.703680155554254
1.8828725,0.692951010896835,0.694134018914716
1.89037,0.683426122678958,0.684590471930431
1.8978675,0.673903516362333,0.675049520333346
1.905365,0.6643831957471,0.665511169744484
1.9128625,0.654865164535584,0.655975425673162
1.92036,0.645349426332349,0.646442293516238
1.9278575,0.635835984644289,0.636911778557386
1.935355,0.626324842880696,0.627383885966392
1.9428525,0.616816004353359,0.61785862079849
1.95035,0.607309472276656,0.608335987993708
1.9578475,0.59780524976765,0.598815992376255
1.965345,0.588303339846204,0.589298638653934
1.9728425,0.578803745435089,0.579783931417571
1.98034,0.569306469360101,0.570271875140487
1.9878375,0.559811514350185,0.560762474177984
1.995335,0.550318883037564,0.551255732766864
2.0028325,0.540828577957869,0.541751655024978
2.01033,0.531340601550275,0.532250244950792
2.0178275,0.521854956157644,0.522751506422992
2.025325,0.512371644026666,0.513255443200104
2.0328225,0.502890667308007,0.503762058920151
2.04032,0.493412028056459,0.494271357100328
2.0478175,0.483935728231092,0.484783341136711
2.055315,0.474461769695407,0.475298014303983
2.0628125,0.464990154217494,0.465815379755195
2.07031,0.455520883470191,0.456335440521549
2.0778075,0.446053959031238,0.446858199512205
2.085305,0.436589382383439,0.437383659514115
2.0928025,0.427127154914819,0.427911823191884
2.1003,0.417667277918788,0.418442693087654
2.1077975,0.408209752594289,0.408976271621013
2.115295,0.398754580045964,0.399512561088928
2.1227925,0.389301761284303,0.390051563665705
2.13029,0.379851297225801,0.380593281402969
2.1377875,0.3704031886931,0.371137716229673
2.145285,0.360957436415148,0.361684869952124
2.1527825,0.351514041027328,0.352234744254038
2.16028,0.342073003071607,0.342787340696611
2.1677775,0.332634322996665,0.333342660718626
2.175275,0.323198001158026,0.323900705636561
2.1827725,0.313764037818179,0.314461476644741
2.19027,0.304332433146695,0.305024974815495
2.1977675,0.294903187220336,0.295591201099343
2.205265,0.285476300023158,0.286160156325199
2.2127625,0.276051771446603,0.276731841200596
2.22026,0.266629601289589,0.267306256311932
2.2277575,0.257209789258578,0.257883402124734
2.235255,0.247792334967651,0.248463278983939
2.2427525,0.238377237938557,0.239045887114196
2.25025,0.228964497600763,0.229631226620186
2.2577475,0.219554113291483,0.220219297486957
2.265245,0.210146084255704,0.21081009958028
2.2727425,0.200740409646187,0.201403632647014
2.28024,0.19133708852347,0.191999896315496
2.2877375,0.181936119855842,0.18259889009594
2.295235,0.172537502519315,0.173200613380852
2.3027325,0.163141235297568,0.16380506544546
2.31023,0.153747316881888,0.154412245448158
2.3177275,0.144355745871086,0.14502215243096
2.325225,0.134966520771394,0.135634785319969
2.3327225,0.125579639996356,0.126250142925859
2.34022,0.116195101866684,0.116868223944362
2.3477175,0.106812904610111,0.107489026956773
2.355215,0.097433046361209,0.0981125504304575
2.3627125,0.0880555251612001,0.0887387927193724
2.37021,0.0786803389577365,0.0793677520645948
2.3777075,0.069307485604664,0.0699994265948567
2.385205,0.0599369628617613,0.0606338143270878
2.3927025,0.0505687683944553,0.0512709131669621
2.4002,0.0412028997735153,0.0419107209094542
2.4076975,0.0318393544747191,0.0325532352393945
2.415195,0.022478129878496,0.023198453732032
2.4226925,0.0131192232695468,0.0138463738536004
2.43019,0.0037626318364293,0.00449699296188229
2.4376875,-0.00559164732887467,-0.00484969169322163
2.445185,-0.0149436172314255,-0.0141936829691248
2.4526825,-0.0242932809738175,-0.0235349838299858
2.46018,-0.0336406417567031,-0.0328735973461437
2.4676775,-0.0429857028793426,-0.042209526693552
2.475175,-0.0523284677401887,-0.0515427751532185
2.4826725,-0.0616689398374983,-0.0608733461106471
2.49017,-0.0710071227699806,-0.0702012430552871
2.4976675,-0.0803430202374728,-0.0795264695799864
2.505165,-0.0896766360416516,-0.0888490293804498
2.5126625,-0.0990079740867806,-0.098168926254711
2.52016,-0.108337038380487,-0.107486164102607
2.5276575,-0.117663833034577,-0.116800746925265
2.535155,-0.126988362265889,-0.126112678824602
2.5426525,-0.136310630397177,-0.135421964002834
2.55015,-0.145630641858035,-0.144728606761993
2.5576475,-0.154948401185862,-0.154032611503472
2.565145,-0.164263913026859,-0.163333982727568
2.5726425,-0.17357718213707,-0.172632725033053
2.58014,-0.18288821338346,-0.181928843116757
2.5876375,-0.192197011745035,-0.19122234177317
2.595135,-0.201503582314002,-0.200513225894064
2.6026325,-0.210807930296971,-0.209801500468135
2.61013,-0.220110061016201,-0.219087170580662
2.6176275,-0.229409979910882,-0.228370241413201
2.625125,-0.238707692538471,-0.237650718243287
2.6326225,-0.248003204576061,-0.246928606444172
2.64012,-0.257296521821809,-0.256203911484586
2.6476175,-0.266587650196391,-0.265476638928524
2.655115,-0.275876595744518,-0.274746794435063
2.6626125,-0.285163364636491,-0.284014383758208
2.67011,-0.294447963169807,-0.293279412746771
2.6776075,-0.303730397770811,-0.302541887344277
2.685105,-0.313010674996395,-0.311801813588913
2.6926025,-0.322288801535748,-0.321059197613497
2.7001,-0.331564784212158,-0.330314045645503
2.7075975,-0.340838629984854,-0.339566364007101
2.715095,-0.350110345950914,-0.348816159115255
2.7225925,-0.35937993934721,-0.358063437481849
2.73009,-0.368647417552417,-0.367308205713859
2.7375875,-0.377912788089063,-0.376550470513567
2.745085,-0.38717605862564,-0.385790238678819
2.7525825,-0.39643723697877,-0.395027517103327
2.76008,-0.405696331115414,-0.404262312777019
2.7675775,-0.414953349155152,-0.413494632786442
2.775075,-0.424208299372505,-0.422724484315202
2.7825725,-0.433461190199319,-0.431951874644469
2.79007,-0.442712030227204,-0.441176811153527
2.7975675,-0.451960828210035,-0.450399301320379
2.805065,-0.461207593066502,-0.45961935272241
2.8125625,-0.470452333882724,-0.468836973037102
2.82006,-0.479695059914925,-0.478052170042817
2.8275575,-0.488935780592158,-0.487264951619627
2.835055,-0.49817450551911,-0.496475325750219
2.8425525,-0.50741124447894,-0.505683300520853
2.85005,-0.516646007436207,-0.514888884122395
2.8575475,-0.525878804539838,-0.524092084851408
2.865045,-0.535109646126172,-0.533292911111312
2.8725425,-0.544338542722064,-0.542491371413624
2.88004,-0.55356550504805,-0.551687474379259
2.8875375,-0.562790544021583,-0.560881228739911
2.895035,-0.572013670760334,-0.570072643339506
2.9025325,-0.581234896585551,-0.579261727135735
2.91003,-0.5904542330255,-0.588448489201669
2.9175275,-0.599671691818963,-0.597632938727449
2.925025,-0.608887284918811,-0.606815085022067
2.9325225,-0.618101024495648,-0.615994937515228
2.94002,-0.62731292294152,-0.625172505759305
2.9475175,-0.636522992873708,-0.634347799431378
2.955015,-0.645731247138584,-0.643520828335371
2.9625125,-0.65493769881555,-0.652691602404286
2.97001,-0.664142361221051,-0.661860131702529
2.9775075,-0.673345247912664,-0.671026426428344
2.985005,-0.682546372693275,-0.680190496916348
2.9925025,-0.691745749615326,-0.689352353640171
3,-0.700943392985161,-0.698512007215212
