"Freq [GHz]","Antenna to Waveport 2 [rad]","Antenna to Waveport 1 [rad]"
0.001,-1.57097997019126,-1.57325079231991
0.0084975,-1.57235808357386,-1.59165186981765
0.015995,-1.57373746950109,-1.61005161958483
0.0234925,-1.57511933201347,-1.62844870741396
0.03099,-1.57650488124049,-1.64684187539996
0.0384875,-1.57789530048216,-1.66522987883142
0.045985,-1.57929175932132,-1.68361147910045
0.0534825,-1.58069541719915,-1.70198544471079
0.06098,-1.58210742368127,-1.72035055271172
0.0684775,-1.58352891736417,-1.73870558983958
0.075975,-1.58496102480083,-1.75704935394432
0.0834725,-1.58640485922836,-1.77538065523986
0.09097,-1.58786151936857,-1.79369831756853
0.0984675,-1.5893320882892,-1.81200117963654
0.105965,-1.59082157566031,-1.83028836953671
0.1134625,-1.59232790120386,-1.84855843607212
0.12096,-1.59385115357478,-1.86681016384742
0.1284575,-1.59539243685388,-1.88504243363332
0.135955,-1.59695283046229,-1.90325414100088
0.1434525,-1.59853339110772,-1.92144419737708
0.15095,-1.60013515396352,-1.93961153098601
0.1584475,-1.60175913334514,-1.9577550877017
0.165945,-1.6034063230531,-1.97587383182852
0.1734425,-1.60507769649368,-1.99396674682004
0.18094,-1.6067742066513,-2.01203283594255
0.1884375,-1.6084967859636,-2.03007112288829
0.195935,-1.61024634613453,-2.04808065234119
0.2034325,-1.61202377791037,-2.06606049049723
0.21093,-1.61382995083654,-2.08400972554128
0.2184275,-1.61566571300826,-2.10192746808112
0.225925,-1.61753189082436,-2.11981285154007
0.2334225,-1.61942928875145,-2.13766503250863
0.24092,-1.62135868910336,-2.15548319105621
0.2484175,-1.62332085183979,-2.17326653100343
0.255915,-1.62531651438704,-2.19101428015586
0.2634125,-1.6273463914828,-2.20872569050003
0.27091,-1.62941117504668,-2.2264000383628
0.2784075,-1.63151153407858,-2.24403662453575
0.285905,-1.63364811458856,-2.26163477436902
0.2934025,-1.63582153957802,-2.2791938378547
0.3009,-1.63803240928175,-2.29671318991044
0.3083975,-1.64028129329693,-2.31419222249052
0.315895,-1.64256876225929,-2.33163037618602
0.3233925,-1.64489533306234,-2.3490270853115
0.33089,-1.64726151706511,-2.36638182592545
0.3383875,-1.64966779949978,-2.38369409499761
0.345885,-1.65211464280689,-2.40096341345301
0.3533825,-1.65460248688986,-2.4181893260863
0.36088,-1.65713174930738,-2.43537140136719
0.3683775,-1.65970282547472,-2.45250923121017
0.375875,-1.66231608888249,-2.46960243071924
0.3833725,-1.66497189133367,-2.48665063791079
0.39087,-1.6676705631986,-2.50365351341659
0.3983675,-1.67041241368713,-2.52061074016824
0.405865,-1.67319773113677,-2.53752202306444
0.4133625,-1.67602678331606,-2.55438708862238
0.42086,-1.67889981774198,-2.57120568461444
0.4283575,-1.68181706201043,-2.58797757969135
0.435855,-1.68477872413871,-2.6047025629932
0.4433525,-1.68778499291905,-2.62138044374921
0.45085,-1.69083603828215,-2.63801105086753
0.4583475,-1.69393201166976,-2.65459423251624
0.465845,-1.6970730464153,-2.6711298556964
0.4733425,-1.70025925813168,-2.68761780580843
0.48084,-1.7034907451053,-2.70405798621268
0.4883375,-1.70676758869541,-2.72045031778524
0.495835,-1.71008985373798,-2.73679473846983
0.5033325,-1.71345758895318,-2.75309120282686
0.51083,-1.71687082735578,-2.76933968158027
0.5183275,-1.72032958666763,-2.78554016116321
0.525825,-1.72383386973147,-2.80169264326315
0.5333225,-1.7273836649255,-2.81779714436737
0.54082,-1.73097894657784,-2.83385369530934
0.5483175,-1.73461967538043,-2.84986234081682
0.555815,-1.73830579880171,-2.86582313906221
0.5633125,-1.74203725149739,-2.88173616121583
0.57081,-1.745813955719,-2.89760149100256
0.5783075,-1.74963582171952,-2.91341922426258
0.585805,-1.75350274815574,-2.92918946851645
0.5933025,-1.75741462248681,-2.94491234253513
0.6008,-1.76137132136863,-2.96058797591538
0.6082975,-1.76537271104377,-2.9762165086608
0.615795,-1.76941864772634,-2.99179809076894
0.6232925,-1.77350897798177,-3.00733288182485
0.63079,-1.77764353910096,-3.02282105060124
0.6382875,-1.78182215946874,-3.03826277466559
0.645785,-1.7860446589262,-3.05365823999445
0.6532825,-1.79031084912681,-3.06900764059509
0.66078,-1.79462053388609,-3.08431117813473
0.6682775,-1.79897350952463,-3.09956906157745
0.675775,-1.8033695652044,-3.11478150682895
0.6832725,-1.80780848325803,-3.1299487363893
0.69077,-1.81229003951124,3.13811432816592
0.6982675,-1.81681400359802,3.12303683779834
0.705765,-1.82138013926872,3.10800385940735
0.7132625,-1.82598820469088,3.09301514742648
0.72076,-1.83063795274281,3.07807045130955
0.7282575,-1.8353291312998,3.06316951582903
0.735755,-1.84006148351313,3.0483120813662
0.7432525,-1.84483474808169,3.03349788419313
0.75075,-1.84964865951637,3.01872665674657
0.7582475,-1.85450294839715,3.00399812789374
0.765745,-1.85939734162298,2.98931202319012
0.7732425,-1.8643315626545,2.97466806512934
0.78074,-1.86930533174967,2.96006597338521
0.7882375,-1.87431836619225,2.94550546504596
0.795735,-1.87937038051344,2.93098625484089
0.8032325,-1.88446108670653,2.91650805535942
0.81073,-1.8895901944348,2.90207057726276
0.8182275,-1.89475741123269,2.88767352948824
0.825725,-1.89996244270037,2.87331661944643
0.8332225,-1.90520499269178,2.85899955321127
0.84072,-1.91048476349635,2.84472203570318
0.8482175,-1.91580145601431,2.83048377086548
0.855715,-1.92115476992597,2.81628446183407
0.8632125,-1.9265444038549,2.80212381110069
0.87071,-1.9319700555251,2.78800152066972
0.8782075,-1.93743142191255,2.7739172922088
0.885705,-1.94292819939092,2.75987082719341
0.8932025,-1.94846008387179,2.74586182704546
0.9007,-1.95402677093949,2.73188999326612
0.9081975,-1.95962795598055,2.71795502756303
0.915695,-1.96526333430809,2.70405663197198
0.9231925,-1.9709326012811,2.69019450897329
0.93069,-1.97663545241881,2.67636836160295
0.9381875,-1.98237158351036,2.66257789355875
0.945685,-1.98814069071972,2.64882280930143
0.9531825,-1.99394247068611,2.63510281415118
0.96068,-1.99977662062008,2.62141761437936
0.9681775,-2.00564283839522,2.60776691729583
0.975675,-2.01154082263579,2.59415043133192
0.9831725,-2.01747027280029,2.58056786611913
0.99067,-2.0234308892611,2.56701893256383
0.9981675,-2.02942237338038,2.55350334291786
1.005665,-2.03544442758221,2.54002081084547
1.0131625,-2.04149675542128,2.52657105148646
1.02066,-2.04757906164802,2.51315378151574
1.0281575,-2.05369105227048,2.49976871919947
1.035655,-2.05983243461293,2.48641558444785
1.0431525,-2.06600291737132,2.47309409886468
1.05065,-2.07220221066584,2.45980398579381
1.0581475,-2.07843002609037,2.44654497036258
1.065645,-2.08468607675934,2.43331677952244
1.0731425,-2.09097007735164,2.42011914208665
1.08064,-2.09728174415215,2.40695178876544
1.0881375,-2.10362079509049,2.3938144521985
1.095635,-2.10998694977758,2.38070686698504
1.1031325,-2.11637992953965,2.36762876971137
1.11063,-2.1227994574501,2.35457989897633
1.1181275,-2.12924525835917,2.34155999541438
1.125625,-2.13571705892147,2.32856880171662
1.1331225,-2.14221458762153,2.31560606264982
1.14062,-2.14873757479741,2.30267152507342
1.1481175,-2.15528575266246,2.2897649379547
1.155615,-2.16185885532523,2.27688605238218
1.1631125,-2.16845661880775,2.26403462157726
1.17061,-2.17507878106208,2.25121040090422
1.1781075,-2.18172508198533,2.23841314787867
1.185605,-2.18839526343316,2.22564262217448
1.1931025,-2.19508906923179,2.21289858562927
1.2006,-2.20180624518866,2.20018080224851
1.2080975,-2.20854653910171,2.18748903820836
1.215595,-2.21530970076743,2.17482306185718
1.2230925,-2.22209548198769,2.16218264371589
1.23059,-2.22890363657532,2.14956755647722
1.2380875,-2.23573392035869,2.13697757500381
1.245585,-2.24258609118516,2.1244124763253
1.2530825,-2.24945990892349,2.11187203963445
1.26058,-2.25635513546535,2.09935604628237
1.2680775,-2.26327153472583,2.08686427977273
1.275575,-2.27020887264314,2.07439652575528
1.2830725,-2.27716691717741,2.06195257201848
1.29057,-2.28414543830872,2.04953220848141
1.2980675,-2.29114420803435,2.03713522718496
1.305565,-2.29816300036536,2.02476142228231
1.3130625,-2.3052015913224,2.01241059002883
1.32056,-2.31225975893095,2.00008252877137
1.3280575,-2.31933728321587,1.98777703893689
1.335555,-2.32643394619544,1.97549392302071
1.3430525,-2.33354953187479,1.96323298557413
1.35055,-2.34068382623882,1.95099403319164
1.3580475,-2.34783661724462,1.93877687449765
1.365545,-2.35500769481346,1.92658132013288
1.3730425,-2.3621968508223,1.9144071827403
1.38054,-2.36940387909488,1.90225427695068
1.3880375,-2.37662857539248,1.89012241936795
1.395535,-2.38387073740421,1.87801142855406
1.4030325,-2.39113016473708,1.86592112501372
1.41053,-2.39840665890564,1.85385133117878
1.4180275,-2.4057000233214,1.8418018713924
1.425525,-2.41301006328193,1.82977257189299
1.4330225,-2.42033658595966,1.81776326079796
1.44052,-2.42767940039057,1.80577376808728
1.4480175,-2.43503831746247,1.79380392558685
1.455515,-2.44241314990326,1.7818535669518
1.4630125,-2.44980371226883,1.76992252764954
1.47051,-2.45720982093093,1.75801064494282
1.4780075,-2.46463129406474,1.74611775787259
1.485505,-2.47206795163646,1.73424370724082
1.4930025,-2.47951961539056,1.72238833559326
1.5005,-2.48698610883712,1.71055148720211
1.5079975,-2.49446725723891,1.69873300804865
1.515495,-2.50196288759843,1.68693274580585
1.5229925,-2.5094728286449,1.67515054982095
1.53049,-2.5169969108211,1.66338627109803
1.5379875,-2.52453496627023,1.65163976228056
1.545485,-2.53208682882264,1.639910877634
1.5529825,-2.53965233398257,1.62819947302834
1.56048,-2.54723131891483,1.6165054059208
1.5679775,-2.5548236224315,1.60482853533839
1.575475,-2.5624290849785,1.59316872186067
1.5829725,-2.57004754862232,1.58152582760249
1.59047,-2.57767885703658,1.56989971619677
1.5979675,-2.5853228554887,1.55829025277738
1.605465,-2.59297939082655,1.5466973039621
1.6129625,-2.60064831146512,1.53512073783562
1.62046,-2.60832946737319,1.52356042393267
1.6279575,-2.61602271006011,1.51201623322118
1.635455,-2.6237278925625,1.50048803808561
1.6429525,-2.63144486943107,1.4889757123103
1.65045,-2.63917349671749,1.477479131063
1.6579475,-2.64691363196125,1.46599817087846
1.665445,-2.65466513417664,1.45453270964215
1.6729425,-2.66242786383974,1.44308262657408
1.68044,-2.67020168287554,1.4316478022128
1.6879375,-2.67798645464502,1.42022811839942
1.695435,-2.68578204393239,1.40882345826187
1.7029325,-2.69358831693241,1.39743370619925
1.71043,-2.7014051412377,1.38605874786624
1.7179275,-2.70923238582623,1.37469847015777
1.725425,-2.71706992104883,1.36335276119378
1.7329225,-2.72491761861681,1.35202151030405
1.74042,-2.73277535158966,1.34070460801331
1.7479175,-2.74064299436285,1.32940194602636
1.755415,-2.74852042265572,1.31811341721348
1.7629125,-2.75640751349949,1.30683891559582
1.77041,-2.76430414522527,1.2955783363311
1.7779075,-2.77221019745233,1.28433157569938
1.785405,-2.78012555107635,1.27309853108897
1.7929025,-2.78805008825776,1.26187910098257
1.8004,-2.79598369241033,1.2506731849435
1.8078975,-2.80392624818968,1.2394806836021
1.815395,-2.81187764148202,1.22830149864231
1.8228925,-2.81983775939299,1.21713553278841
1.83039,-2.82780649023652,1.20598268979187
1.8378875,-2.83578372352395,1.19484287441843
1.845385,-2.84376934995311,1.18371599243529
1.8528825,-2.8517632613976,1.17260195059851
1.86038,-2.85976535089619,1.1615006566405
1.8678775,-2.86777551264227,1.15041201925774
1.875375,-2.87579364197351,1.13933594809862
1.8828725,-2.88381963536151,1.1282723537515
1.89037,-2.89185339040173,1.11722114773283
1.8978675,-2.89989480580336,1.10618224247554
1.905365,-2.90794378137946,1.09515555131755
1.9128625,-2.91600021803712,1.08414098849039
1.92036,-2.9240640177678,1.07313846910811
1.9278575,-2.93213508363773,1.06214790915621
1.935355,-2.94021331977852,1.05116922548081
1.9428525,-2.94829863137776,1.040202335778
1.95035,-2.95639092466989,1.02924715858329
1.9578475,-2.96449010692707,1.01830361326126
1.965345,-2.97259608645024,1.00737161999537
1.9728425,-2.98070877256028,0.996451099777898
1.98034,-2.98882807558928,0.985541974400102
1.9878375,-2.99695390687196,0.974644166442464
1.995335,-3.00508617873717,0.963757599265151
2.0028325,-3.01322480449959,0.952882196998605
2.01033,-3.02136969845145,0.9420178845343
2.0178275,-3.02952077585446,0.931164587515658
2.025325,-3.03767795293179,0.920322232329116
2.0328225,-3.04584114686027,0.909490746095347
2.04032,-3.05401027576258,0.898670056660644
2.0478175,-3.06218525869971,0.887860092588448
2.055315,-3.0703660156634,0.877060783151039
2.0628125,-3.07855246756883,0.866272058321372
2.07031,-3.08674453624733,0.855493848765067
2.0778075,-3.09494214443929,0.844726085832552
2.085305,-3.10314521578713,0.833968701551352
2.0928025,-3.11135367482847,0.82322162861853
2.1003,-3.11956744698933,0.812484800393275
2.1077975,-3.12778645857751,0.801758150889638
2.115295,-3.1360106367761,0.791041614769412
2.1227925,3.13894539754249,0.780335127335158
2.13029,3.1307111011045,0.769638624523384
2.1377875,3.12247185131839,0.758952042897846
2.145285,3.1142277175626,0.748275319643018
2.1527825,3.10597876837097,0.737608392557685
2.16028,3.09772507143854,0.726951200048679
2.1677775,3.0894666936272,0.716303681124761
2.175275,3.08120370097122,0.705665775390636
2.1827725,3.07293615868264,0.695037423041105
2.19027,3.06466413115657,0.684418564855355
2.1977675,3.05638768197637,0.673809142191383
2.205265,3.04810687391863,0.663209096980554
2.2127625,3.03982176895818,0.652618371722287
2.22026,3.03153242827281,0.642036909478886
2.2277575,3.02323891224799,0.631464653870482
2.235255,3.01494128048141,0.620901549070122
2.2427525,3.00663959178741,0.61034753979897
2.25025,2.99833390420132,0.599802571321649
2.2577475,2.99002427498363,0.5892665894417
2.265245,2.98171076062406,0.578739540497167
2.2727425,2.97339341684553,0.568221371356301
2.28024,2.96507229860798,0.557712029413396
2.2877375,2.9567474601121,0.547211462584733
2.295235,2.94841895480287,0.536719619304654
2.3027325,2.94008683537309,0.52623644852174
2.31023,2.93175115376672,0.515761899695123
2.3177275,2.92341196118207,0.505295922790896
2.325225,2.91506930807496,0.494838468278647
2.3327225,2.90672324416169,0.4843894871281
2.34022,2.89837381842193,0.473948930805869
2.3477175,2.89002107910145,0.463516751272323
2.355215,2.88166507371476,0.453092900978551
2.3627125,2.87330584904766,0.442677332863443
2.37021,2.8649434511596,0.432270000350866
2.3777075,2.85657792538597,0.421870857346954
2.385205,2.84820931634026,0.41147985823749
2.3927025,2.83983766791614,0.401096957885393
2.4002,2.83146302328931,0.3907221116283
2.4076975,2.82308542491937,0.38035527527625
2.415195,2.81470491455151,0.369996405109457
2.4226925,2.80632153321802,0.359645457876184
2.43019,2.79793532123983,0.349302390790699
2.4376875,2.78954631822778,0.338967161531327
2.445185,2.78115456308388,0.328639728238593
2.4526825,2.7727600940024,0.318320049513447
2.46018,2.76436294847086,0.308008084415569
2.4676775,2.7559631632709,0.297703792461773
2.475175,2.74756077447904,0.287407133624472
2.4826725,2.73915581746733,0.277118068330237
2.49017,2.73074832690383,0.266836557458424
2.4976675,2.72233833675309,0.256562562339886
2.505165,2.71392588027636,0.246296044755747
2.5126625,2.70551099003186,0.236036966936254
2.52016,2.69709369787476,0.225785291559699
2.5276575,2.68867403495717,0.215540981751403
2.535155,2.68025203172798,0.205304001082769
2.5426525,2.67182771793255,0.195074313570399
2.55015,2.66340112261235,0.184851883675263
2.5576475,2.65497227410442,0.174636676301944
2.565145,2.64654120004079,0.164428656797916
2.5726425,2.6381079273477,0.154227790952895
2.58014,2.62967248224476,0.144034044998234
2.5876375,2.62123489024404,0.133847385606366
2.595135,2.61279517614894,0.123667779890297
2.6026325,2.60435336405302,0.113495195403138
2.61013,2.59590947733871,0.103329600137688
2.6176275,2.5874635386759,0.093170962526047
2.625125,2.57901557002043,0.0830192514392707
2.6326225,2.57056559261243,0.0728744361870578
2.64012,2.56211362697461,0.0627364865174677
2.6476175,2.55365969291039,0.0526053726166694
2.655115,2.54520380950192,0.0424810651087134
2.6626125,2.53674599510805,0.0323635350553283
2.67011,2.5282862673621,0.0222527539557373
2.6776075,2.5198246431696,0.0121486937464913
2.685105,2.51136113870588,0.00205132680131591
2.6926025,2.50289576941354,-0.00803937406902946
2.7001,2.49442854999986,-0.0181234356168843
2.7075975,2.48595949443406,-0.0282008841578158
2.715095,2.47748861594443,-0.0382717455707456
2.7225925,2.46901592701545,-0.048336045298078
2.73009,2.46054143938469,-0.0583938083458331
2.7375875,2.45206516403968,-0.0684450592837882
2.745085,2.4435871112146,-0.0784898222456308
2.7525825,2.43510729038698,-0.088528120929127
2.76008,2.42662571027414,-0.0985599785963095
2.7675775,2.41814237882967,-0.108585418073688
2.775075,2.40965730323972,-0.118604461752483
2.7825725,2.40117048991918,-0.128617131588894
2.79007,2.39268194450781,-0.138623449104401
2.7975675,2.38419167186623,-0.148623435386098
2.805065,2.37569967607181,-0.158617111087078
2.8125625,2.36720596041443,-0.168604496426855
2.82006,2.35871052739222,-0.178585611191842
2.8275575,2.35021337870706,-0.188560474735883
2.835055,2.34171451526014,-0.198529105980839
2.8425525,2.33321393714728,-0.208491523417246
2.85005,2.32471164365419,-0.218447745105029
2.8575475,2.31620763325169,-0.228397788674302
2.865045,2.30770190359073,-0.238341671326236
2.8725425,2.29919445149738,-0.248279409834009
2.88004,2.29068527296766,-0.258211020543851
2.8875375,2.28217436316234,-0.268136519376172
2.895035,2.27366171640156,-0.278055921826796
2.9025325,2.26514732615942,-0.287969242968288
2.91003,2.25663118505842,-0.297876497451398
2.9175275,2.24811328486381,-0.307777699506615
2.925025,2.23959361647784,-0.317672862945841
2.9325225,2.23107216993395,-0.32756200116419
2.94002,2.22254893439076,-0.33744512714192
2.9475175,2.21402389812607,-0.347322253446501
2.955015,2.2054970485307,-0.357193392234828
2.9625125,2.19696837210222,-0.367058555255587
2.97001,2.1884378544386,-0.376917753851771
2.9775075,2.17990548023178,-0.386770998963375
2.985005,2.17137123326106,-0.396618301130246
2.9925025,2.16283509638648,-0.406459670495122
3,2.15429705154204,-0.416295116806863
